 
-- ======================================================================
--                     Simulation tb_04 start                               
-- ======================================================================
---- Initial simulation
// ================================================================
// File Name    : log.txt                                          
// Test Pattern : tb_04                                     
// ================================================================
---- clock ---- 1111 ---- enable
---- Wait for  64 cycles end
---- Wait for  64 cycles end
---- Wait for  64 cycles end
---- [Success  ]LBUS Read register   ADD :0x0000    EDAT :0x01234567    RDAT :0x01234567
---- [Success  ]LBUS Read register   ADD :0x0001    EDAT :0x89abcdef    RDAT :0x89abcdef
---- [Success  ]LBUS Read register   ADD :0x0002    EDAT :0x5a5a5a5a    RDAT :0x5a5a5a5a
---- [Success  ]LBUS Read register   ADD :0x0003    EDAT :0xa5a5a5a5    RDAT :0xa5a5a5a5
---- [Success  ]LBUS Read register   ADD :0x0004    EDAT :0x00000000    RDAT :0x00000000
---- [Success  ]LBUS Read register   ADD :0x0005    EDAT :0xffffffff    RDAT :0xffffffff
---- [Success  ]LBUS Read register   ADD :0x0800    EDAT :0x01234567    RDAT :0x01234567
---- [Success  ]LBUS Read register   ADD :0x0801    EDAT :0x89abcdef    RDAT :0x89abcdef
---- [Success  ]LBUS Read register   ADD :0x0802    EDAT :0x5a5a5a5a    RDAT :0x5a5a5a5a
---- [Success  ]LBUS Read register   ADD :0x0803    EDAT :0xa5a5a5a5    RDAT :0xa5a5a5a5
---- [Success  ]LBUS Read register   ADD :0x0804    EDAT :0x00000000    RDAT :0x00000000
---- [Success  ]LBUS Read register   ADD :0x0805    EDAT :0xffffffff    RDAT :0xffffffff
---- [Success  ]LBUS Read register   ADD :0x0c00    EDAT :0x01234567    RDAT :0x01234567
---- [Success  ]LBUS Read register   ADD :0x0c01    EDAT :0x89abcdef    RDAT :0x89abcdef
---- [Success  ]LBUS Read register   ADD :0x0c02    EDAT :0x5a5a5a5a    RDAT :0x5a5a5a5a
---- [Success  ]LBUS Read register   ADD :0x0c03    EDAT :0xa5a5a5a5    RDAT :0xa5a5a5a5
---- [Success  ]LBUS Read register   ADD :0x0c04    EDAT :0x00000000    RDAT :0x00000000
---- [Success  ]LBUS Read register   ADD :0x0c05    EDAT :0xffffffff    RDAT :0xffffffff
---- [Success  ]LBUS Read register   ADD :0x1000    EDAT :0x01234567    RDAT :0x01234567
---- [Success  ]LBUS Read register   ADD :0x1001    EDAT :0x89abcdef    RDAT :0x89abcdef
---- [Success  ]LBUS Read register   ADD :0x1002    EDAT :0x5a5a5a5a    RDAT :0x5a5a5a5a
---- [Success  ]LBUS Read register   ADD :0x1003    EDAT :0xa5a5a5a5    RDAT :0xa5a5a5a5
---- [Success  ]LBUS Read register   ADD :0x1004    EDAT :0x00000000    RDAT :0x00000000
---- [Success  ]LBUS Read register   ADD :0x1005    EDAT :0xffffffff    RDAT :0xffffffff
---- [Success  ]LBUS Read register   ADD :0x1400    EDAT :0x01234567    RDAT :0x01234567
---- [Success  ]LBUS Read register   ADD :0x1401    EDAT :0x89abcdef    RDAT :0x89abcdef
---- [Success  ]LBUS Read register   ADD :0x1402    EDAT :0x5a5a5a5a    RDAT :0x5a5a5a5a
---- [Success  ]LBUS Read register   ADD :0x1403    EDAT :0xa5a5a5a5    RDAT :0xa5a5a5a5
---- [Success  ]LBUS Read register   ADD :0x1404    EDAT :0x00000000    RDAT :0x00000000
---- [Success  ]LBUS Read register   ADD :0x1405    EDAT :0xffffffff    RDAT :0xffffffff
---- [Success  ]LBUS Read register   ADD :0x1800    EDAT :0x01234567    RDAT :0x01234567
---- [Success  ]LBUS Read register   ADD :0x1801    EDAT :0x89abcdef    RDAT :0x89abcdef
---- [Success  ]LBUS Read register   ADD :0x1802    EDAT :0x5a5a5a5a    RDAT :0x5a5a5a5a
---- [Success  ]LBUS Read register   ADD :0x1803    EDAT :0xa5a5a5a5    RDAT :0xa5a5a5a5
---- [Success  ]LBUS Read register   ADD :0x1804    EDAT :0x00000000    RDAT :0x00000000
---- [Success  ]LBUS Read register   ADD :0x1805    EDAT :0xffffffff    RDAT :0xffffffff
---- [Success  ]LBUS Read register   ADD :0x1c00    EDAT :0x01234567    RDAT :0x01234567
---- [Success  ]LBUS Read register   ADD :0x1c01    EDAT :0x89abcdef    RDAT :0x89abcdef
---- [Success  ]LBUS Read register   ADD :0x1c02    EDAT :0x5a5a5a5a    RDAT :0x5a5a5a5a
---- [Success  ]LBUS Read register   ADD :0x1c03    EDAT :0xa5a5a5a5    RDAT :0xa5a5a5a5
---- [Success  ]LBUS Read register   ADD :0x1c04    EDAT :0x00000000    RDAT :0x00000000
---- [Success  ]LBUS Read register   ADD :0x1c05    EDAT :0xffffffff    RDAT :0xffffffff
---- Wait for  64 cycles end
---- Wait for  64 cycles end
---- [Success  ]LBUS Read register   ADD :0x0020    EDAT :0x00000000    RDAT :0x00000000
---- [Success  ]LBUS Read register   ADD :0x0021    EDAT :0x00000000    RDAT :0x00000000
---- [Success  ]LBUS Read register   ADD :0x0022    EDAT :0x00000000    RDAT :0x00000000
---- [Success  ]LBUS Read register   ADD :0x0023    EDAT :0x00000000    RDAT :0x00000000
---- [Success  ]LBUS Read register   ADD :0x0024    EDAT :0x00000000    RDAT :0x00000000
---- [Success  ]LBUS Read register   ADD :0x0025    EDAT :0x00000000    RDAT :0x00000000
---- [Success  ]LBUS Read register   ADD :0x0026    EDAT :0x00000000    RDAT :0x00000000
---- [Success  ]LBUS Read register   ADD :0x0027    EDAT :0x00000000    RDAT :0x00000000
---- [Success  ]LBUS Read register   ADD :0x0820    EDAT :0x00000000    RDAT :0x00000000
---- [Success  ]LBUS Read register   ADD :0x0821    EDAT :0x00000000    RDAT :0x00000000
---- [Success  ]LBUS Read register   ADD :0x0822    EDAT :0x00000000    RDAT :0x00000000
---- [Success  ]LBUS Read register   ADD :0x0823    EDAT :0x00000000    RDAT :0x00000000
---- [Success  ]LBUS Read register   ADD :0x0824    EDAT :0x00000000    RDAT :0x00000000
---- [Success  ]LBUS Read register   ADD :0x0825    EDAT :0x00000000    RDAT :0x00000000
---- [Success  ]LBUS Read register   ADD :0x0826    EDAT :0x00000000    RDAT :0x00000000
---- [Success  ]LBUS Read register   ADD :0x0827    EDAT :0x00000000    RDAT :0x00000000
---- [Success  ]LBUS Read register   ADD :0x0c20    EDAT :0x00000000    RDAT :0x00000000
---- [Success  ]LBUS Read register   ADD :0x0c21    EDAT :0x00000000    RDAT :0x00000000
---- [Success  ]LBUS Read register   ADD :0x0c22    EDAT :0x00000000    RDAT :0x00000000
---- [Success  ]LBUS Read register   ADD :0x0c23    EDAT :0x00000000    RDAT :0x00000000
---- [Success  ]LBUS Read register   ADD :0x0c24    EDAT :0x00000000    RDAT :0x00000000
---- [Success  ]LBUS Read register   ADD :0x0c25    EDAT :0x00000000    RDAT :0x00000000
---- [Success  ]LBUS Read register   ADD :0x0c26    EDAT :0x00000000    RDAT :0x00000000
---- [Success  ]LBUS Read register   ADD :0x0c27    EDAT :0x00000000    RDAT :0x00000000
---- [Success  ]LBUS Read register   ADD :0x1020    EDAT :0x00000000    RDAT :0x00000000
---- [Success  ]LBUS Read register   ADD :0x1021    EDAT :0x00000000    RDAT :0x00000000
---- [Success  ]LBUS Read register   ADD :0x1022    EDAT :0x00000000    RDAT :0x00000000
---- [Success  ]LBUS Read register   ADD :0x1023    EDAT :0x00000000    RDAT :0x00000000
---- [Success  ]LBUS Read register   ADD :0x1024    EDAT :0x00000000    RDAT :0x00000000
---- [Success  ]LBUS Read register   ADD :0x1025    EDAT :0x00000000    RDAT :0x00000000
---- [Success  ]LBUS Read register   ADD :0x1026    EDAT :0x00000000    RDAT :0x00000000
---- [Success  ]LBUS Read register   ADD :0x1027    EDAT :0x00000000    RDAT :0x00000000
---- [Success  ]LBUS Read register   ADD :0x1420    EDAT :0x00000000    RDAT :0x00000000
---- [Success  ]LBUS Read register   ADD :0x1421    EDAT :0x00000000    RDAT :0x00000000
---- [Success  ]LBUS Read register   ADD :0x1422    EDAT :0x00000000    RDAT :0x00000000
---- [Success  ]LBUS Read register   ADD :0x1423    EDAT :0x00000000    RDAT :0x00000000
---- [Success  ]LBUS Read register   ADD :0x1424    EDAT :0x00000000    RDAT :0x00000000
---- [Success  ]LBUS Read register   ADD :0x1425    EDAT :0x00000000    RDAT :0x00000000
---- [Success  ]LBUS Read register   ADD :0x1426    EDAT :0x00000000    RDAT :0x00000000
---- [Success  ]LBUS Read register   ADD :0x1427    EDAT :0x00000000    RDAT :0x00000000
---- [Success  ]LBUS Read register   ADD :0x1820    EDAT :0x00000000    RDAT :0x00000000
---- [Success  ]LBUS Read register   ADD :0x1821    EDAT :0x00000000    RDAT :0x00000000
---- [Success  ]LBUS Read register   ADD :0x1822    EDAT :0x00000000    RDAT :0x00000000
---- [Success  ]LBUS Read register   ADD :0x1823    EDAT :0x00000000    RDAT :0x00000000
---- [Success  ]LBUS Read register   ADD :0x1824    EDAT :0x00000000    RDAT :0x00000000
---- [Success  ]LBUS Read register   ADD :0x1825    EDAT :0x00000000    RDAT :0x00000000
---- [Success  ]LBUS Read register   ADD :0x1826    EDAT :0x00000000    RDAT :0x00000000
---- [Success  ]LBUS Read register   ADD :0x1827    EDAT :0x00000000    RDAT :0x00000000
---- [Success  ]LBUS Read register   ADD :0x1c20    EDAT :0x00000000    RDAT :0x00000000
---- [Success  ]LBUS Read register   ADD :0x1c21    EDAT :0x00000000    RDAT :0x00000000
---- [Success  ]LBUS Read register   ADD :0x1c22    EDAT :0x00000000    RDAT :0x00000000
---- [Success  ]LBUS Read register   ADD :0x1c23    EDAT :0x00000000    RDAT :0x00000000
---- [Success  ]LBUS Read register   ADD :0x1c24    EDAT :0x00000000    RDAT :0x00000000
---- [Success  ]LBUS Read register   ADD :0x1c25    EDAT :0x00000000    RDAT :0x00000000
---- [Success  ]LBUS Read register   ADD :0x1c26    EDAT :0x00000000    RDAT :0x00000000
---- [Success  ]LBUS Read register   ADD :0x1c27    EDAT :0x00000000    RDAT :0x00000000
---- Wait for  64 cycles end
---- LBUS Write register   ADD :0x0020    DATA :0x01234567
---- LBUS Write register   ADD :0x0021    DATA :0x76543210
---- LBUS Write register   ADD :0x0022    DATA :0x89abcdef
---- LBUS Write register   ADD :0x0023    DATA :0xfedcba98
---- LBUS Write register   ADD :0x0024    DATA :0x5a5a5a5a
---- LBUS Write register   ADD :0x0025    DATA :0xa5a5a5a5
---- LBUS Write register   ADD :0x0026    DATA :0x00000000
---- LBUS Write register   ADD :0x0027    DATA :0xffffffff
---- LBUS Write register   ADD :0x0820    DATA :0x01234567
---- LBUS Write register   ADD :0x0821    DATA :0x76543210
---- LBUS Write register   ADD :0x0822    DATA :0x89abcdef
---- LBUS Write register   ADD :0x0823    DATA :0xfedcba98
---- LBUS Write register   ADD :0x0824    DATA :0x5a5a5a5a
---- LBUS Write register   ADD :0x0825    DATA :0xa5a5a5a5
---- LBUS Write register   ADD :0x0826    DATA :0x00000000
---- LBUS Write register   ADD :0x0827    DATA :0xffffffff
---- LBUS Write register   ADD :0x0c20    DATA :0x01234567
---- LBUS Write register   ADD :0x0c21    DATA :0x76543210
---- LBUS Write register   ADD :0x0c22    DATA :0x89abcdef
---- LBUS Write register   ADD :0x0c23    DATA :0xfedcba98
---- LBUS Write register   ADD :0x0c24    DATA :0x5a5a5a5a
---- LBUS Write register   ADD :0x0c25    DATA :0xa5a5a5a5
---- LBUS Write register   ADD :0x0c26    DATA :0x00000000
---- LBUS Write register   ADD :0x0c27    DATA :0xffffffff
---- LBUS Write register   ADD :0x1020    DATA :0x01234567
---- LBUS Write register   ADD :0x1021    DATA :0x76543210
---- LBUS Write register   ADD :0x1022    DATA :0x89abcdef
---- LBUS Write register   ADD :0x1023    DATA :0xfedcba98
---- LBUS Write register   ADD :0x1024    DATA :0x5a5a5a5a
---- LBUS Write register   ADD :0x1025    DATA :0xa5a5a5a5
---- LBUS Write register   ADD :0x1026    DATA :0x00000000
---- LBUS Write register   ADD :0x1027    DATA :0xffffffff
---- LBUS Write register   ADD :0x1420    DATA :0x01234567
---- LBUS Write register   ADD :0x1421    DATA :0x76543210
---- LBUS Write register   ADD :0x1422    DATA :0x89abcdef
---- LBUS Write register   ADD :0x1423    DATA :0xfedcba98
---- LBUS Write register   ADD :0x1424    DATA :0x5a5a5a5a
---- LBUS Write register   ADD :0x1425    DATA :0xa5a5a5a5
---- LBUS Write register   ADD :0x1426    DATA :0x00000000
---- LBUS Write register   ADD :0x1427    DATA :0xffffffff
---- LBUS Write register   ADD :0x1820    DATA :0x01234567
---- LBUS Write register   ADD :0x1821    DATA :0x76543210
---- LBUS Write register   ADD :0x1822    DATA :0x89abcdef
---- LBUS Write register   ADD :0x1823    DATA :0xfedcba98
---- LBUS Write register   ADD :0x1824    DATA :0x5a5a5a5a
---- LBUS Write register   ADD :0x1825    DATA :0xa5a5a5a5
---- LBUS Write register   ADD :0x1826    DATA :0x00000000
---- LBUS Write register   ADD :0x1827    DATA :0xffffffff
---- LBUS Write register   ADD :0x1c20    DATA :0x01234567
---- LBUS Write register   ADD :0x1c21    DATA :0x76543210
---- LBUS Write register   ADD :0x1c22    DATA :0x89abcdef
---- LBUS Write register   ADD :0x1c23    DATA :0xfedcba98
---- LBUS Write register   ADD :0x1c24    DATA :0x5a5a5a5a
---- LBUS Write register   ADD :0x1c25    DATA :0xa5a5a5a5
---- LBUS Write register   ADD :0x1c26    DATA :0x00000000
---- LBUS Write register   ADD :0x1c27    DATA :0xffffffff
---- Wait for  64 cycles end
---- [Success  ]LBUS Read register   ADD :0x0020    EDAT :0x01234567    RDAT :0x01234567
---- [Success  ]LBUS Read register   ADD :0x0021    EDAT :0x76543210    RDAT :0x76543210
---- [Success  ]LBUS Read register   ADD :0x0022    EDAT :0x89abcdef    RDAT :0x89abcdef
---- [Success  ]LBUS Read register   ADD :0x0023    EDAT :0xfedcba98    RDAT :0xfedcba98
---- [Success  ]LBUS Read register   ADD :0x0024    EDAT :0x5a5a5a5a    RDAT :0x5a5a5a5a
---- [Success  ]LBUS Read register   ADD :0x0025    EDAT :0xa5a5a5a5    RDAT :0xa5a5a5a5
---- [Success  ]LBUS Read register   ADD :0x0026    EDAT :0x00000000    RDAT :0x00000000
---- [Success  ]LBUS Read register   ADD :0x0027    EDAT :0xffffffff    RDAT :0xffffffff
---- [Success  ]LBUS Read register   ADD :0x0820    EDAT :0x01234567    RDAT :0x01234567
---- [Success  ]LBUS Read register   ADD :0x0821    EDAT :0x76543210    RDAT :0x76543210
---- [Success  ]LBUS Read register   ADD :0x0822    EDAT :0x89abcdef    RDAT :0x89abcdef
---- [Success  ]LBUS Read register   ADD :0x0823    EDAT :0xfedcba98    RDAT :0xfedcba98
---- [Success  ]LBUS Read register   ADD :0x0824    EDAT :0x5a5a5a5a    RDAT :0x5a5a5a5a
---- [Success  ]LBUS Read register   ADD :0x0825    EDAT :0xa5a5a5a5    RDAT :0xa5a5a5a5
---- [Success  ]LBUS Read register   ADD :0x0826    EDAT :0x00000000    RDAT :0x00000000
---- [Success  ]LBUS Read register   ADD :0x0827    EDAT :0xffffffff    RDAT :0xffffffff
---- [Success  ]LBUS Read register   ADD :0x0c20    EDAT :0x01234567    RDAT :0x01234567
---- [Success  ]LBUS Read register   ADD :0x0c21    EDAT :0x76543210    RDAT :0x76543210
---- [Success  ]LBUS Read register   ADD :0x0c22    EDAT :0x89abcdef    RDAT :0x89abcdef
---- [Success  ]LBUS Read register   ADD :0x0c23    EDAT :0xfedcba98    RDAT :0xfedcba98
---- [Success  ]LBUS Read register   ADD :0x0c24    EDAT :0x5a5a5a5a    RDAT :0x5a5a5a5a
---- [Success  ]LBUS Read register   ADD :0x0c25    EDAT :0xa5a5a5a5    RDAT :0xa5a5a5a5
---- [Success  ]LBUS Read register   ADD :0x0c26    EDAT :0x00000000    RDAT :0x00000000
---- [Success  ]LBUS Read register   ADD :0x0c27    EDAT :0xffffffff    RDAT :0xffffffff
---- [Success  ]LBUS Read register   ADD :0x1020    EDAT :0x01234567    RDAT :0x01234567
---- [Success  ]LBUS Read register   ADD :0x1021    EDAT :0x76543210    RDAT :0x76543210
---- [Success  ]LBUS Read register   ADD :0x1022    EDAT :0x89abcdef    RDAT :0x89abcdef
---- [Success  ]LBUS Read register   ADD :0x1023    EDAT :0xfedcba98    RDAT :0xfedcba98
---- [Success  ]LBUS Read register   ADD :0x1024    EDAT :0x5a5a5a5a    RDAT :0x5a5a5a5a
---- [Success  ]LBUS Read register   ADD :0x1025    EDAT :0xa5a5a5a5    RDAT :0xa5a5a5a5
---- [Success  ]LBUS Read register   ADD :0x1026    EDAT :0x00000000    RDAT :0x00000000
---- [Success  ]LBUS Read register   ADD :0x1027    EDAT :0xffffffff    RDAT :0xffffffff
---- [Success  ]LBUS Read register   ADD :0x1420    EDAT :0x01234567    RDAT :0x01234567
---- [Success  ]LBUS Read register   ADD :0x1421    EDAT :0x76543210    RDAT :0x76543210
---- [Success  ]LBUS Read register   ADD :0x1422    EDAT :0x89abcdef    RDAT :0x89abcdef
---- [Success  ]LBUS Read register   ADD :0x1423    EDAT :0xfedcba98    RDAT :0xfedcba98
---- [Success  ]LBUS Read register   ADD :0x1424    EDAT :0x5a5a5a5a    RDAT :0x5a5a5a5a
---- [Success  ]LBUS Read register   ADD :0x1425    EDAT :0xa5a5a5a5    RDAT :0xa5a5a5a5
---- [Success  ]LBUS Read register   ADD :0x1426    EDAT :0x00000000    RDAT :0x00000000
---- [Success  ]LBUS Read register   ADD :0x1427    EDAT :0xffffffff    RDAT :0xffffffff
---- [Success  ]LBUS Read register   ADD :0x1820    EDAT :0x01234567    RDAT :0x01234567
---- [Success  ]LBUS Read register   ADD :0x1821    EDAT :0x76543210    RDAT :0x76543210
---- [Success  ]LBUS Read register   ADD :0x1822    EDAT :0x89abcdef    RDAT :0x89abcdef
---- [Success  ]LBUS Read register   ADD :0x1823    EDAT :0xfedcba98    RDAT :0xfedcba98
---- [Success  ]LBUS Read register   ADD :0x1824    EDAT :0x5a5a5a5a    RDAT :0x5a5a5a5a
---- [Success  ]LBUS Read register   ADD :0x1825    EDAT :0xa5a5a5a5    RDAT :0xa5a5a5a5
---- [Success  ]LBUS Read register   ADD :0x1826    EDAT :0x00000000    RDAT :0x00000000
---- [Success  ]LBUS Read register   ADD :0x1827    EDAT :0xffffffff    RDAT :0xffffffff
---- [Success  ]LBUS Read register   ADD :0x1c20    EDAT :0x01234567    RDAT :0x01234567
---- [Success  ]LBUS Read register   ADD :0x1c21    EDAT :0x76543210    RDAT :0x76543210
---- [Success  ]LBUS Read register   ADD :0x1c22    EDAT :0x89abcdef    RDAT :0x89abcdef
---- [Success  ]LBUS Read register   ADD :0x1c23    EDAT :0xfedcba98    RDAT :0xfedcba98
---- [Success  ]LBUS Read register   ADD :0x1c24    EDAT :0x5a5a5a5a    RDAT :0x5a5a5a5a
---- [Success  ]LBUS Read register   ADD :0x1c25    EDAT :0xa5a5a5a5    RDAT :0xa5a5a5a5
---- [Success  ]LBUS Read register   ADD :0x1c26    EDAT :0x00000000    RDAT :0x00000000
---- [Success  ]LBUS Read register   ADD :0x1c27    EDAT :0xffffffff    RDAT :0xffffffff
---- Wait for 255 cycles end
---- tb_04 test completed !
 
-- ======================================================================
--                    Simulation tb_04 Successful End                       
-- ======================================================================
