# End time: 09:28:17 on Feb 18,2025, Elapsed time: 0:00:21
# Errors: 0, Warnings: 9
# vsim -t 1ps -c -l ./log/vsim_tb_04_report.log work.tb_top -L UNISIMS_VER -L SECUREIP -L SIMPRIMS_VER -L work -voptargs="+acc" work.glbl -wav ./wave/tb_04.wlf 
# Start time: 09:28:17 on Feb 18,2025
# ** Note: (vsim-3813) Design is being optimized due to module recompilation...
# Loading work.tb_top(fast)
# Loading work.SIM_MODEL(fast)
# Loading work.PC_SIM(fast)
# Loading work.PCIE_IF_GX(fast)
# Loading work.PCIE_RX(fast)
# Loading work.sfifo_i180_o180_d512(fast)
# Loading UNISIMS_VER.GND(fast)
# Loading UNISIMS_VER.LUT1(fast)
# Loading UNISIMS_VER.LUT2(fast)
# Loading UNISIMS_VER.LUT3(fast)
# Loading UNISIMS_VER.FDRE(fast)
# Loading UNISIMS_VER.CARRY4(fast)
# Loading UNISIMS_VER.LUT5(fast)
# Loading UNISIMS_VER.LUT5(fast__1)
# Loading UNISIMS_VER.FDSE(fast)
# Loading UNISIMS_VER.LUT4(fast)
# Loading UNISIMS_VER.LUT4(fast__1)
# Loading UNISIMS_VER.LUT3(fast__1)
# Loading UNISIMS_VER.LUT3(fast__2)
# Loading UNISIMS_VER.LUT4(fast__2)
# Loading UNISIMS_VER.LUT6(fast)
# Loading UNISIMS_VER.LUT2(fast__1)
# Loading UNISIMS_VER.LUT3(fast__3)
# Loading UNISIMS_VER.LUT4(fast__3)
# Loading UNISIMS_VER.LUT5(fast__2)
# Loading UNISIMS_VER.LUT6(fast__1)
# Loading UNISIMS_VER.LUT6(fast__2)
# Loading UNISIMS_VER.LUT4(fast__4)
# Loading UNISIMS_VER.LUT2(fast__2)
# Loading UNISIMS_VER.LUT5(fast__3)
# Loading UNISIMS_VER.LUT4(fast__5)
# Loading UNISIMS_VER.LUT6(fast__3)
# Loading UNISIMS_VER.LUT1(fast__1)
# Loading UNISIMS_VER.RAMB18E1(fast)
# Loading UNISIMS_VER.RB18_INTERNAL_VLOG(fast)
# Loading UNISIMS_VER.RAMB36E1(fast)
# Loading UNISIMS_VER.RB36_INTERNAL_VLOG(fast)
# Loading work.PCIE_TX(fast)
# Loading work.sfifo_i72o72_d512(fast)
# Loading UNISIMS_VER.LUT2(fast__3)
# Loading UNISIMS_VER.RAMB36E1(fast__1)
# Loading UNISIMS_VER.RB36_INTERNAL_VLOG(fast__1)
# Loading work.PCIE_REG_IF(fast)
# Loading work.PCIE_REG_ACK(fast)
# Loading work.PCIE_REG_INT(fast)
# Loading work.PCIE_DN_REG(fast)
# Loading work.PCIE_UP_REG(fast)
# Loading work.PCIE_DN_CPLD_IF(fast)
# Loading work.PCIE_DN_IF(fast)
# Loading work.afifo_i90o90_d512(fast)
# Loading work.afifo_i90o90_d512_xpm_cdc_gray(fast)
# Loading UNISIMS_VER.LUT4(fast__6)
# Loading UNISIMS_VER.LUT3(fast__4)
# Loading UNISIMS_VER.LUT6(fast__4)
# Loading UNISIMS_VER.LUT5(fast__4)
# Loading work.afifo_i90o90_d512_xpm_cdc_gray__2(fast)
# Loading UNISIMS_VER.FDPE(fast)
# Loading UNISIMS_VER.LUT4(fast__7)
# Loading UNISIMS_VER.FDCE(fast)
# Loading UNISIMS_VER.LUT4(fast__8)
# Loading UNISIMS_VER.LUT6(fast__5)
# Loading UNISIMS_VER.LUT5(fast__5)
# Loading UNISIMS_VER.LUT6(fast__6)
# Loading UNISIMS_VER.LUT5(fast__6)
# Loading UNISIMS_VER.LUT5(fast__7)
# Loading UNISIMS_VER.LUT5(fast__8)
# Loading UNISIMS_VER.LUT5(fast__9)
# Loading UNISIMS_VER.RAM64M(fast)
# Loading UNISIMS_VER.LUT6(fast__7)
# Loading UNISIMS_VER.MUXF7(fast)
# Loading UNISIMS_VER.LUT2(fast__4)
# Loading work.afifo_i90o90_d512_xpm_cdc_async_rst(fast)
# Loading UNISIMS_VER.FDPE(fast__1)
# Loading UNISIMS_VER.LUT3(fast__5)
# Loading UNISIMS_VER.LUT5(fast__10)
# Loading work.afifo_i90o90_d512_xpm_cdc_single(fast)
# Loading work.afifo_i90o90_d512_xpm_cdc_single__2(fast)
# Loading work.afifo_i90o90_d512_xpm_cdc_async_rst__1(fast)
# Loading work.PCIE_DN_LBUF(fast)
# Loading work.afifo_i72o72_d2048(fast)
# Loading work.afifo_i72o72_d2048_xpm_cdc_gray(fast)
# Loading work.afifo_i72o72_d2048_xpm_cdc_gray__2(fast)
# Loading UNISIMS_VER.LUT6(fast__8)
# Loading UNISIMS_VER.LUT6(fast__9)
# Loading UNISIMS_VER.LUT6(fast__10)
# Loading UNISIMS_VER.LUT6(fast__11)
# Loading UNISIMS_VER.LUT6(fast__12)
# Loading work.afifo_i72o72_d2048_xpm_cdc_async_rst(fast)
# Loading work.afifo_i72o72_d2048_xpm_cdc_single(fast)
# Loading work.afifo_i72o72_d2048_xpm_cdc_single__2(fast)
# Loading work.afifo_i72o72_d2048_xpm_cdc_async_rst__1(fast)
# Loading work.PULSE_GEN(fast)
# Loading work.PCIE_DN_DFK(fast)
# Loading work.PCIE_DN_DEK(fast)
# Loading work.PCIE_DN_FBUF(fast)
# Loading work.sfifo_i108o108_d512(fast)
# Loading work.PCIE_DN_DMA(fast)
# Loading work.PCIE_DN_CPLD_UEK(fast)
# Loading work.PCIE_DN_CPLD_DFK(fast)
# Loading work.PCIE_DN_CPLD_DPK(fast)
# Loading work.sram_i64o64_d256(fast)
# Loading UNISIMS_VER.SRL16E(fast)
# Loading UNISIMS_VER.RAMB36E1(fast__2)
# Loading UNISIMS_VER.RB36_INTERNAL_VLOG(fast__2)
# Loading UNISIMS_VER.LUT3(fast__6)
# Loading UNISIMS_VER.LUT4(fast__9)
# Loading work.PCIE_DN_DFK(fast__1)
# Loading work.PCIE_DN_DEK(fast__1)
# Loading work.PCIE_DN_DMA(fast__1)
# Loading work.PCIE_DN_ARBIT(fast)
# Loading work.PCIE_UP_IF(fast)
# Loading work.PCIE_UP_LBUF(fast)
# Loading work.PCIE_UP_EBUF(fast)
# Loading work.PCIE_UP_UFK(fast)
# Loading work.PCIE_UP_UEK(fast)
# Loading work.PCIE_UP_DMA(fast)
# Loading work.PCIE_UP_UFK(fast__1)
# Loading work.PCIE_UP_UEK(fast__1)
# Loading work.PCIE_UP_DMA(fast__1)
# Loading work.PCIE_UP_ARBIT(fast)
# Loading work.BIST_REG(fast)
# Loading work.glbl(fast)
# ** Warning: (vsim-3015) [PCDPC] - Port size (12) does not match connection size (16) for port 'DRAM_WR_SIZE'. The port definition is at: ../rtl/05_pc_sim/pc_sim.v(26).
#    Time: 0 ps  Iteration: 0  Instance: /tb_top/U_PC_SIM File: sim_model/tb_top.v Line: 708
# ** Warning: (vsim-3015) [PCDPC] - Port size (8) does not match connection size (10) for port 'addra'. The port definition is at: ../rtl/00_xilinx_ip/0_sbram/sram_i64o64_d256/sram_i64o64_d256_sim_netlist.V(20).
#    Time: 0 ps  Iteration: 0  Instance: /tb_top/U_PCIE_IF_GX/GROUP_DN[0]/U_PCIE_DN_CPLD_DPK/U_DBUF File: ../rtl/03_pcie_if_gx/pcie_dn_cpld_dpk.v Line: 158
# ** Warning: (vsim-3015) [PCDPC] - Port size (8) does not match connection size (10) for port 'addrb'. The port definition is at: ../rtl/00_xilinx_ip/0_sbram/sram_i64o64_d256/sram_i64o64_d256_sim_netlist.V(24).
#    Time: 0 ps  Iteration: 0  Instance: /tb_top/U_PCIE_IF_GX/GROUP_DN[0]/U_PCIE_DN_CPLD_DPK/U_DBUF File: ../rtl/03_pcie_if_gx/pcie_dn_cpld_dpk.v Line: 158
# ** Warning: (vsim-3015) [PCDPC] - Port size (1) does not match connection size (64) for port 'rsta_busy'. The port definition is at: ../rtl/00_xilinx_ip/0_sbram/sram_i64o64_d256/sram_i64o64_d256_sim_netlist.V(26).
#    Time: 0 ps  Iteration: 0  Instance: /tb_top/U_PCIE_IF_GX/GROUP_DN[0]/U_PCIE_DN_CPLD_DPK/U_DBUF File: ../rtl/03_pcie_if_gx/pcie_dn_cpld_dpk.v Line: 158
# ** Warning: (vsim-3015) [PCDPC] - Port size (1) does not match connection size (64) for port 'rstb_busy'. The port definition is at: ../rtl/00_xilinx_ip/0_sbram/sram_i64o64_d256/sram_i64o64_d256_sim_netlist.V(27).
#    Time: 0 ps  Iteration: 0  Instance: /tb_top/U_PCIE_IF_GX/GROUP_DN[0]/U_PCIE_DN_CPLD_DPK/U_DBUF File: ../rtl/03_pcie_if_gx/pcie_dn_cpld_dpk.v Line: 158
# ** Warning: (vsim-3015) [PCDPC] - Port size (8) does not match connection size (10) for port 'addra'. The port definition is at: ../rtl/00_xilinx_ip/0_sbram/sram_i64o64_d256/sram_i64o64_d256_sim_netlist.V(20).
#    Time: 0 ps  Iteration: 0  Instance: /tb_top/U_PCIE_IF_GX/GROUP_DN[1]/U_PCIE_DN_CPLD_DPK/U_DBUF File: ../rtl/03_pcie_if_gx/pcie_dn_cpld_dpk.v Line: 158
# ** Warning: (vsim-3015) [PCDPC] - Port size (8) does not match connection size (10) for port 'addrb'. The port definition is at: ../rtl/00_xilinx_ip/0_sbram/sram_i64o64_d256/sram_i64o64_d256_sim_netlist.V(24).
#    Time: 0 ps  Iteration: 0  Instance: /tb_top/U_PCIE_IF_GX/GROUP_DN[1]/U_PCIE_DN_CPLD_DPK/U_DBUF File: ../rtl/03_pcie_if_gx/pcie_dn_cpld_dpk.v Line: 158
# ** Warning: (vsim-3015) [PCDPC] - Port size (1) does not match connection size (64) for port 'rsta_busy'. The port definition is at: ../rtl/00_xilinx_ip/0_sbram/sram_i64o64_d256/sram_i64o64_d256_sim_netlist.V(26).
#    Time: 0 ps  Iteration: 0  Instance: /tb_top/U_PCIE_IF_GX/GROUP_DN[1]/U_PCIE_DN_CPLD_DPK/U_DBUF File: ../rtl/03_pcie_if_gx/pcie_dn_cpld_dpk.v Line: 158
# ** Warning: (vsim-3015) [PCDPC] - Port size (1) does not match connection size (64) for port 'rstb_busy'. The port definition is at: ../rtl/00_xilinx_ip/0_sbram/sram_i64o64_d256/sram_i64o64_d256_sim_netlist.V(27).
#    Time: 0 ps  Iteration: 0  Instance: /tb_top/U_PCIE_IF_GX/GROUP_DN[1]/U_PCIE_DN_CPLD_DPK/U_DBUF File: ../rtl/03_pcie_if_gx/pcie_dn_cpld_dpk.v Line: 158
# ** UI-Msg: (vish-4014) No objects found matching '/tb_top/U_FPGA_TOP_SIMA/U_REG_BIST_0/REG_WR_REQ'.
# Executing ONERROR command at macro ./wave_do/wave_tb_04.do line 18
# ** UI-Msg: (vish-4014) No objects found matching '/tb_top/U_FPGA_TOP_SIMA/U_REG_BIST_0/REG_RD_REQ'.
# Executing ONERROR command at macro ./wave_do/wave_tb_04.do line 19
# ** UI-Msg: (vish-4014) No objects found matching '/tb_top/U_FPGA_TOP_SIMA/U_REG_BIST_0/REG_WR_ACK'.
# Executing ONERROR command at macro ./wave_do/wave_tb_04.do line 20
# ** UI-Msg: (vish-4014) No objects found matching '/tb_top/U_FPGA_TOP_SIMA/U_REG_BIST_0/REG_RD_ACK'.
# Executing ONERROR command at macro ./wave_do/wave_tb_04.do line 21
# ** UI-Msg: (vish-4014) No objects found matching '/tb_top/U_FPGA_TOP_SIMA/U_REG_BIST_0/REG_WR_DATA'.
# Executing ONERROR command at macro ./wave_do/wave_tb_04.do line 22
# ** UI-Msg: (vish-4014) No objects found matching '/tb_top/U_FPGA_TOP_SIMA/U_REG_BIST_0/REG_RD_DATA'.
# Executing ONERROR command at macro ./wave_do/wave_tb_04.do line 23
# ** UI-Msg: (vish-4014) No objects found matching '/tb_top/U_FPGA_TOP_SIMA/U_REG_BIST_0/REG_OP_ADDR'.
# Executing ONERROR command at macro ./wave_do/wave_tb_04.do line 24
# ** UI-Msg: (vish-4014) No objects found matching '/tb_top/U_FPGA_TOP_SIMA/U_REG_BIST_0/s_REG_FPGA_VER0_EN'.
# Executing ONERROR command at macro ./wave_do/wave_tb_04.do line 26
# ** UI-Msg: (vish-4014) No objects found matching '/tb_top/U_FPGA_TOP_SIMA/U_REG_BIST_0/s_REG_FPGA_VER1_EN'.
# Executing ONERROR command at macro ./wave_do/wave_tb_04.do line 27
# ** UI-Msg: (vish-4014) No objects found matching '/tb_top/U_FPGA_TOP_SIMA/U_REG_BIST_0/s_REG_FPGA_VER2_EN'.
# Executing ONERROR command at macro ./wave_do/wave_tb_04.do line 28
# ** UI-Msg: (vish-4014) No objects found matching '/tb_top/U_FPGA_TOP_SIMA/U_REG_BIST_0/s_REG_FPGA_VER3_EN'.
# Executing ONERROR command at macro ./wave_do/wave_tb_04.do line 29
# ** UI-Msg: (vish-4014) No objects found matching '/tb_top/U_FPGA_TOP_SIMA/U_REG_BIST_0/s_REG_BORD_VER0_EN'.
# Executing ONERROR command at macro ./wave_do/wave_tb_04.do line 30
# ** UI-Msg: (vish-4014) No objects found matching '/tb_top/U_FPGA_TOP_SIMA/U_REG_BIST_0/s_REG_BORD_VER1_EN'.
# Executing ONERROR command at macro ./wave_do/wave_tb_04.do line 31
# ** UI-Msg: (vish-4014) No objects found matching '/tb_top/U_FPGA_TOP_SIM/*'.
# Executing ONERROR command at macro ./wave_do/wave_tb_04.do line 54
# ** UI-Msg: (vish-4014) No objects found matching '/tb_top/U_FPGA_TOP_SIM/U01_LBUS_TOP/*'.
# Executing ONERROR command at macro ./wave_do/wave_tb_04.do line 57
# ** UI-Msg: (vish-4014) No objects found matching '/tb_top/U_FPGA_TOP_SIM/U01_LBUS_TOP/U00_LBUS_IF/*'.
# Executing ONERROR command at macro ./wave_do/wave_tb_04.do line 60
# ** UI-Msg: (vish-4014) No objects found matching '/tb_top/U_FPGA_TOP_SIM/U01_LBUS_TOP/U01_REG_IF/*'.
# Executing ONERROR command at macro ./wave_do/wave_tb_04.do line 63
# ** UI-Msg: (vish-4014) No objects found matching '/tb_top/U_FPGA_TOP_SIM/U_FPGA_TOP_SIMA/*'.
# Executing ONERROR command at macro ./wave_do/wave_tb_04.do line 66
#  
# ******<<<<<<<<<<<<<<<<<<<<<<Simulation tb_04 start>>>>>>>>>>>>>>>>>>>>>>> ******
#  
# ---- Initial simulation
# ---- clock ---- 1111 ---- enable
# ---- Wait for  64 cycles
# Memory Collision Error on RAMB36E1 : tb_top.U_PCIE_IF_GX.GROUP_DN[1].U_PCIE_DN_CPLD_DPK.U_DBUF.U0.<protected>.<protected>.<protected>.<protected>.<protected>.<protected>.gen_sdp.gen_wide.INT_RAMB_SDP.chk_for_col_msg at simulation time 118.000 ns.
# A read was performed on address 803f (hex) of port A while a write was requested to the same address on port B.  The write will be successful however the read value on port A is unknown until the next CLKA cycle.
# Memory Collision Error on RAMB36E1 : tb_top.U_PCIE_IF_GX.GROUP_DN[0].U_PCIE_DN_CPLD_DPK.U_DBUF.U0.<protected>.<protected>.<protected>.<protected>.<protected>.<protected>.gen_sdp.gen_wide.INT_RAMB_SDP.chk_for_col_msg at simulation time 118.000 ns.
# A read was performed on address 803f (hex) of port A while a write was requested to the same address on port B.  The write will be successful however the read value on port A is unknown until the next CLKA cycle.
# Memory Collision Error on RAMB36E1 : tb_top.U_PCIE_IF_GX.GROUP_DN[1].U_PCIE_DN_CPLD_DPK.U_DBUF.U0.<protected>.<protected>.<protected>.<protected>.<protected>.<protected>.gen_sdp.gen_wide.INT_RAMB_SDP.chk_for_col_msg at simulation time 122.000 ns.
# A read was performed on address 803f (hex) of port A while a write was requested to the same address on port B.  The write will be successful however the read value on port A is unknown until the next CLKA cycle.
# Memory Collision Error on RAMB36E1 : tb_top.U_PCIE_IF_GX.GROUP_DN[0].U_PCIE_DN_CPLD_DPK.U_DBUF.U0.<protected>.<protected>.<protected>.<protected>.<protected>.<protected>.gen_sdp.gen_wide.INT_RAMB_SDP.chk_for_col_msg at simulation time 122.000 ns.
# A read was performed on address 803f (hex) of port A while a write was requested to the same address on port B.  The write will be successful however the read value on port A is unknown until the next CLKA cycle.
# Memory Collision Error on RAMB36E1 : tb_top.U_PCIE_IF_GX.GROUP_DN[1].U_PCIE_DN_CPLD_DPK.U_DBUF.U0.<protected>.<protected>.<protected>.<protected>.<protected>.<protected>.gen_sdp.gen_wide.INT_RAMB_SDP.chk_for_col_msg at simulation time 126.000 ns.
# A read was performed on address 803f (hex) of port A while a write was requested to the same address on port B.  The write will be successful however the read value on port A is unknown until the next CLKA cycle.
# Memory Collision Error on RAMB36E1 : tb_top.U_PCIE_IF_GX.GROUP_DN[0].U_PCIE_DN_CPLD_DPK.U_DBUF.U0.<protected>.<protected>.<protected>.<protected>.<protected>.<protected>.gen_sdp.gen_wide.INT_RAMB_SDP.chk_for_col_msg at simulation time 126.000 ns.
# A read was performed on address 803f (hex) of port A while a write was requested to the same address on port B.  The write will be successful however the read value on port A is unknown until the next CLKA cycle.
# Memory Collision Error on RAMB36E1 : tb_top.U_PCIE_IF_GX.GROUP_DN[1].U_PCIE_DN_CPLD_DPK.U_DBUF.U0.<protected>.<protected>.<protected>.<protected>.<protected>.<protected>.gen_sdp.gen_wide.INT_RAMB_SDP.chk_for_col_msg at simulation time 130.000 ns.
# A read was performed on address 803f (hex) of port A while a write was requested to the same address on port B.  The write will be successful however the read value on port A is unknown until the next CLKA cycle.
# Memory Collision Error on RAMB36E1 : tb_top.U_PCIE_IF_GX.GROUP_DN[0].U_PCIE_DN_CPLD_DPK.U_DBUF.U0.<protected>.<protected>.<protected>.<protected>.<protected>.<protected>.gen_sdp.gen_wide.INT_RAMB_SDP.chk_for_col_msg at simulation time 130.000 ns.
# A read was performed on address 803f (hex) of port A while a write was requested to the same address on port B.  The write will be successful however the read value on port A is unknown until the next CLKA cycle.
# ---- Wait for  64 cycles end
# ---- Wait for  64 cycles
# ---- Wait for  64 cycles end
# ---- Wait for  64 cycles
# ---- Wait for  64 cycles end
# ---- [Error      ]LBUS Read register   ADD :0x0000    EDAT :0x01234567    RDAT :0xffffffff
# ---- [Error      ]LBUS Read register   ADD :0x0001    EDAT :0x89abcdef    RDAT :0xffffffff
# ---- [Error      ]LBUS Read register   ADD :0x0002    EDAT :0x5a5a5a5a    RDAT :0xffffffff
# ---- [Error      ]LBUS Read register   ADD :0x0003    EDAT :0xa5a5a5a5    RDAT :0xffffffff
# ---- [Error      ]LBUS Read register   ADD :0x0004    EDAT :0x00000000    RDAT :0xffffffff
# ---- [Success  ]LBUS Read register   ADD :0x0005    EDAT :0xffffffff    RDAT :0xffffffff
# ---- [Error      ]LBUS Read register   ADD :0x0800    EDAT :0x01234567    RDAT :0xffffffff
# ---- [Error      ]LBUS Read register   ADD :0x0801    EDAT :0x89abcdef    RDAT :0xffffffff
# ---- [Error      ]LBUS Read register   ADD :0x0802    EDAT :0x5a5a5a5a    RDAT :0xffffffff
# ---- [Error      ]LBUS Read register   ADD :0x0803    EDAT :0xa5a5a5a5    RDAT :0xffffffff
# ---- [Error      ]LBUS Read register   ADD :0x0804    EDAT :0x00000000    RDAT :0xffffffff
# ---- [Success  ]LBUS Read register   ADD :0x0805    EDAT :0xffffffff    RDAT :0xffffffff
# ---- [Error      ]LBUS Read register   ADD :0x0c00    EDAT :0x01234567    RDAT :0xffffffff
# ---- [Error      ]LBUS Read register   ADD :0x0c01    EDAT :0x89abcdef    RDAT :0xffffffff
# ---- [Error      ]LBUS Read register   ADD :0x0c02    EDAT :0x5a5a5a5a    RDAT :0xffffffff
# ---- [Error      ]LBUS Read register   ADD :0x0c03    EDAT :0xa5a5a5a5    RDAT :0xffffffff
# ---- [Error      ]LBUS Read register   ADD :0x0c04    EDAT :0x00000000    RDAT :0xffffffff
# ---- [Success  ]LBUS Read register   ADD :0x0c05    EDAT :0xffffffff    RDAT :0xffffffff
# ---- [Error      ]LBUS Read register   ADD :0x1000    EDAT :0x01234567    RDAT :0xffffffff
# ---- [Error      ]LBUS Read register   ADD :0x1001    EDAT :0x89abcdef    RDAT :0xffffffff
# ---- [Error      ]LBUS Read register   ADD :0x1002    EDAT :0x5a5a5a5a    RDAT :0xffffffff
# ---- [Error      ]LBUS Read register   ADD :0x1003    EDAT :0xa5a5a5a5    RDAT :0xffffffff
# ---- [Error      ]LBUS Read register   ADD :0x1004    EDAT :0x00000000    RDAT :0xffffffff
# ---- [Success  ]LBUS Read register   ADD :0x1005    EDAT :0xffffffff    RDAT :0xffffffff
# ---- [Error      ]LBUS Read register   ADD :0x1400    EDAT :0x01234567    RDAT :0xffffffff
# ---- [Error      ]LBUS Read register   ADD :0x1401    EDAT :0x89abcdef    RDAT :0xffffffff
# ---- [Error      ]LBUS Read register   ADD :0x1402    EDAT :0x5a5a5a5a    RDAT :0xffffffff
# ---- [Error      ]LBUS Read register   ADD :0x1403    EDAT :0xa5a5a5a5    RDAT :0xffffffff
# ---- [Error      ]LBUS Read register   ADD :0x1404    EDAT :0x00000000    RDAT :0xffffffff
# ---- [Success  ]LBUS Read register   ADD :0x1405    EDAT :0xffffffff    RDAT :0xffffffff
# ---- [Error      ]LBUS Read register   ADD :0x1800    EDAT :0x01234567    RDAT :0xffffffff
# ---- [Error      ]LBUS Read register   ADD :0x1801    EDAT :0x89abcdef    RDAT :0xffffffff
# ---- [Error      ]LBUS Read register   ADD :0x1802    EDAT :0x5a5a5a5a    RDAT :0xffffffff
# ---- [Error      ]LBUS Read register   ADD :0x1803    EDAT :0xa5a5a5a5    RDAT :0xffffffff
# ---- [Error      ]LBUS Read register   ADD :0x1804    EDAT :0x00000000    RDAT :0xffffffff
# ---- [Success  ]LBUS Read register   ADD :0x1805    EDAT :0xffffffff    RDAT :0xffffffff
# ---- [Error      ]LBUS Read register   ADD :0x1c00    EDAT :0x01234567    RDAT :0xffffffff
# ---- [Error      ]LBUS Read register   ADD :0x1c01    EDAT :0x89abcdef    RDAT :0xffffffff
# ---- [Error      ]LBUS Read register   ADD :0x1c02    EDAT :0x5a5a5a5a    RDAT :0xffffffff
# ---- [Error      ]LBUS Read register   ADD :0x1c03    EDAT :0xa5a5a5a5    RDAT :0xffffffff
# ---- [Error      ]LBUS Read register   ADD :0x1c04    EDAT :0x00000000    RDAT :0xffffffff
# ---- [Success  ]LBUS Read register   ADD :0x1c05    EDAT :0xffffffff    RDAT :0xffffffff
# ---- Wait for  64 cycles
# ---- Wait for  64 cycles end
# ---- Wait for  64 cycles
# ---- Wait for  64 cycles end
# ---- [Error      ]LBUS Read register   ADD :0x0020    EDAT :0x00000000    RDAT :0xffffffff
# ---- [Error      ]LBUS Read register   ADD :0x0021    EDAT :0x00000000    RDAT :0xffffffff
# ---- [Error      ]LBUS Read register   ADD :0x0022    EDAT :0x00000000    RDAT :0xffffffff
# ---- [Error      ]LBUS Read register   ADD :0x0023    EDAT :0x00000000    RDAT :0xffffffff
# ---- [Error      ]LBUS Read register   ADD :0x0024    EDAT :0x00000000    RDAT :0xffffffff
# ---- [Error      ]LBUS Read register   ADD :0x0025    EDAT :0x00000000    RDAT :0xffffffff
# ---- [Error      ]LBUS Read register   ADD :0x0026    EDAT :0x00000000    RDAT :0xffffffff
# ---- [Error      ]LBUS Read register   ADD :0x0027    EDAT :0x00000000    RDAT :0xffffffff
# ---- [Error      ]LBUS Read register   ADD :0x0820    EDAT :0x00000000    RDAT :0xffffffff
# ---- [Error      ]LBUS Read register   ADD :0x0821    EDAT :0x00000000    RDAT :0xffffffff
# ---- [Error      ]LBUS Read register   ADD :0x0822    EDAT :0x00000000    RDAT :0xffffffff
# ---- [Error      ]LBUS Read register   ADD :0x0823    EDAT :0x00000000    RDAT :0xffffffff
# ---- [Error      ]LBUS Read register   ADD :0x0824    EDAT :0x00000000    RDAT :0xffffffff
# ---- [Error      ]LBUS Read register   ADD :0x0825    EDAT :0x00000000    RDAT :0xffffffff
# ---- [Error      ]LBUS Read register   ADD :0x0826    EDAT :0x00000000    RDAT :0xffffffff
# ---- [Error      ]LBUS Read register   ADD :0x0827    EDAT :0x00000000    RDAT :0xffffffff
# ---- [Error      ]LBUS Read register   ADD :0x0c20    EDAT :0x00000000    RDAT :0xffffffff
# ---- [Error      ]LBUS Read register   ADD :0x0c21    EDAT :0x00000000    RDAT :0xffffffff
# ---- [Error      ]LBUS Read register   ADD :0x0c22    EDAT :0x00000000    RDAT :0xffffffff
# ---- [Error      ]LBUS Read register   ADD :0x0c23    EDAT :0x00000000    RDAT :0xffffffff
# ---- [Error      ]LBUS Read register   ADD :0x0c24    EDAT :0x00000000    RDAT :0xffffffff
# ---- [Error      ]LBUS Read register   ADD :0x0c25    EDAT :0x00000000    RDAT :0xffffffff
# ---- [Error      ]LBUS Read register   ADD :0x0c26    EDAT :0x00000000    RDAT :0xffffffff
# ---- [Error      ]LBUS Read register   ADD :0x0c27    EDAT :0x00000000    RDAT :0xffffffff
# ---- [Error      ]LBUS Read register   ADD :0x1020    EDAT :0x00000000    RDAT :0xffffffff
# ---- [Error      ]LBUS Read register   ADD :0x1021    EDAT :0x00000000    RDAT :0xffffffff
# ---- [Error      ]LBUS Read register   ADD :0x1022    EDAT :0x00000000    RDAT :0xffffffff
# ---- [Error      ]LBUS Read register   ADD :0x1023    EDAT :0x00000000    RDAT :0xffffffff
# ---- [Error      ]LBUS Read register   ADD :0x1024    EDAT :0x00000000    RDAT :0xffffffff
# ---- [Error      ]LBUS Read register   ADD :0x1025    EDAT :0x00000000    RDAT :0xffffffff
# ---- [Error      ]LBUS Read register   ADD :0x1026    EDAT :0x00000000    RDAT :0xffffffff
# ---- [Error      ]LBUS Read register   ADD :0x1027    EDAT :0x00000000    RDAT :0xffffffff
# ---- [Error      ]LBUS Read register   ADD :0x1420    EDAT :0x00000000    RDAT :0xffffffff
# ---- [Error      ]LBUS Read register   ADD :0x1421    EDAT :0x00000000    RDAT :0xffffffff
# ---- [Error      ]LBUS Read register   ADD :0x1422    EDAT :0x00000000    RDAT :0xffffffff
# ---- [Error      ]LBUS Read register   ADD :0x1423    EDAT :0x00000000    RDAT :0xffffffff
# ---- [Error      ]LBUS Read register   ADD :0x1424    EDAT :0x00000000    RDAT :0xffffffff
# ---- [Error      ]LBUS Read register   ADD :0x1425    EDAT :0x00000000    RDAT :0xffffffff
# ---- [Error      ]LBUS Read register   ADD :0x1426    EDAT :0x00000000    RDAT :0xffffffff
# ---- [Error      ]LBUS Read register   ADD :0x1427    EDAT :0x00000000    RDAT :0xffffffff
# ---- [Error      ]LBUS Read register   ADD :0x1820    EDAT :0x00000000    RDAT :0xffffffff
# ---- [Error      ]LBUS Read register   ADD :0x1821    EDAT :0x00000000    RDAT :0xffffffff
# ---- [Error      ]LBUS Read register   ADD :0x1822    EDAT :0x00000000    RDAT :0xffffffff
# ---- [Error      ]LBUS Read register   ADD :0x1823    EDAT :0x00000000    RDAT :0xffffffff
# ---- [Error      ]LBUS Read register   ADD :0x1824    EDAT :0x00000000    RDAT :0xffffffff
# ---- [Error      ]LBUS Read register   ADD :0x1825    EDAT :0x00000000    RDAT :0xffffffff
# ---- [Error      ]LBUS Read register   ADD :0x1826    EDAT :0x00000000    RDAT :0xffffffff
# ---- [Error      ]LBUS Read register   ADD :0x1827    EDAT :0x00000000    RDAT :0xffffffff
# ---- [Error      ]LBUS Read register   ADD :0x1c20    EDAT :0x00000000    RDAT :0xffffffff
# ---- [Error      ]LBUS Read register   ADD :0x1c21    EDAT :0x00000000    RDAT :0xffffffff
# ---- [Error      ]LBUS Read register   ADD :0x1c22    EDAT :0x00000000    RDAT :0xffffffff
# ---- [Error      ]LBUS Read register   ADD :0x1c23    EDAT :0x00000000    RDAT :0xffffffff
# ---- [Error      ]LBUS Read register   ADD :0x1c24    EDAT :0x00000000    RDAT :0xffffffff
# ---- [Error      ]LBUS Read register   ADD :0x1c25    EDAT :0x00000000    RDAT :0xffffffff
# ---- [Error      ]LBUS Read register   ADD :0x1c26    EDAT :0x00000000    RDAT :0xffffffff
# ---- [Error      ]LBUS Read register   ADD :0x1c27    EDAT :0x00000000    RDAT :0xffffffff
# ---- Wait for  64 cycles
# ---- Wait for  64 cycles end
# ---- LBUS Write register   ADD :0x0020    DATA :0x01234567
# ---- LBUS Write register   ADD :0x0021    DATA :0x76543210
# ---- LBUS Write register   ADD :0x0022    DATA :0x89abcdef
# ---- LBUS Write register   ADD :0x0023    DATA :0xfedcba98
# ---- LBUS Write register   ADD :0x0024    DATA :0x5a5a5a5a
# ---- LBUS Write register   ADD :0x0025    DATA :0xa5a5a5a5
# ---- LBUS Write register   ADD :0x0026    DATA :0x00000000
# ---- LBUS Write register   ADD :0x0027    DATA :0xffffffff
# ---- LBUS Write register   ADD :0x0820    DATA :0x01234567
# ---- LBUS Write register   ADD :0x0821    DATA :0x76543210
# ---- LBUS Write register   ADD :0x0822    DATA :0x89abcdef
# ---- LBUS Write register   ADD :0x0823    DATA :0xfedcba98
# ---- LBUS Write register   ADD :0x0824    DATA :0x5a5a5a5a
# ---- LBUS Write register   ADD :0x0825    DATA :0xa5a5a5a5
# ---- LBUS Write register   ADD :0x0826    DATA :0x00000000
# ---- LBUS Write register   ADD :0x0827    DATA :0xffffffff
# ---- LBUS Write register   ADD :0x0c20    DATA :0x01234567
# ---- LBUS Write register   ADD :0x0c21    DATA :0x76543210
# ---- LBUS Write register   ADD :0x0c22    DATA :0x89abcdef
# ---- LBUS Write register   ADD :0x0c23    DATA :0xfedcba98
# ---- LBUS Write register   ADD :0x0c24    DATA :0x5a5a5a5a
# ---- LBUS Write register   ADD :0x0c25    DATA :0xa5a5a5a5
# ---- LBUS Write register   ADD :0x0c26    DATA :0x00000000
# ---- LBUS Write register   ADD :0x0c27    DATA :0xffffffff
# ---- LBUS Write register   ADD :0x1020    DATA :0x01234567
# ---- LBUS Write register   ADD :0x1021    DATA :0x76543210
# ---- LBUS Write register   ADD :0x1022    DATA :0x89abcdef
# ---- LBUS Write register   ADD :0x1023    DATA :0xfedcba98
# ---- LBUS Write register   ADD :0x1024    DATA :0x5a5a5a5a
# ---- LBUS Write register   ADD :0x1025    DATA :0xa5a5a5a5
# ---- LBUS Write register   ADD :0x1026    DATA :0x00000000
# ---- LBUS Write register   ADD :0x1027    DATA :0xffffffff
# ---- LBUS Write register   ADD :0x1420    DATA :0x01234567
# ---- LBUS Write register   ADD :0x1421    DATA :0x76543210
# ---- LBUS Write register   ADD :0x1422    DATA :0x89abcdef
# ---- LBUS Write register   ADD :0x1423    DATA :0xfedcba98
# ---- LBUS Write register   ADD :0x1424    DATA :0x5a5a5a5a
# ---- LBUS Write register   ADD :0x1425    DATA :0xa5a5a5a5
# ---- LBUS Write register   ADD :0x1426    DATA :0x00000000
# ---- LBUS Write register   ADD :0x1427    DATA :0xffffffff
# ---- LBUS Write register   ADD :0x1820    DATA :0x01234567
# ---- LBUS Write register   ADD :0x1821    DATA :0x76543210
# ---- LBUS Write register   ADD :0x1822    DATA :0x89abcdef
# ---- LBUS Write register   ADD :0x1823    DATA :0xfedcba98
# ---- LBUS Write register   ADD :0x1824    DATA :0x5a5a5a5a
# ---- LBUS Write register   ADD :0x1825    DATA :0xa5a5a5a5
# ---- LBUS Write register   ADD :0x1826    DATA :0x00000000
# ---- LBUS Write register   ADD :0x1827    DATA :0xffffffff
# ---- LBUS Write register   ADD :0x1c20    DATA :0x01234567
# ---- LBUS Write register   ADD :0x1c21    DATA :0x76543210
# ---- LBUS Write register   ADD :0x1c22    DATA :0x89abcdef
# ---- LBUS Write register   ADD :0x1c23    DATA :0xfedcba98
# ---- LBUS Write register   ADD :0x1c24    DATA :0x5a5a5a5a
# ---- LBUS Write register   ADD :0x1c25    DATA :0xa5a5a5a5
# ---- LBUS Write register   ADD :0x1c26    DATA :0x00000000
# ---- LBUS Write register   ADD :0x1c27    DATA :0xffffffff
# ---- Wait for  64 cycles
# ---- Wait for  64 cycles end
# ---- [Error      ]LBUS Read register   ADD :0x0020    EDAT :0x01234567    RDAT :0xffffffff
# ---- [Error      ]LBUS Read register   ADD :0x0021    EDAT :0x76543210    RDAT :0xffffffff
# ---- [Error      ]LBUS Read register   ADD :0x0022    EDAT :0x89abcdef    RDAT :0xffffffff
# ---- [Error      ]LBUS Read register   ADD :0x0023    EDAT :0xfedcba98    RDAT :0xffffffff
# ---- [Error      ]LBUS Read register   ADD :0x0024    EDAT :0x5a5a5a5a    RDAT :0xffffffff
# ---- [Error      ]LBUS Read register   ADD :0x0025    EDAT :0xa5a5a5a5    RDAT :0xffffffff
# ---- [Error      ]LBUS Read register   ADD :0x0026    EDAT :0x00000000    RDAT :0xffffffff
# ---- [Success  ]LBUS Read register   ADD :0x0027    EDAT :0xffffffff    RDAT :0xffffffff
# ---- [Error      ]LBUS Read register   ADD :0x0820    EDAT :0x01234567    RDAT :0xffffffff
# ---- [Error      ]LBUS Read register   ADD :0x0821    EDAT :0x76543210    RDAT :0xffffffff
# ---- [Error      ]LBUS Read register   ADD :0x0822    EDAT :0x89abcdef    RDAT :0xffffffff
# ---- [Error      ]LBUS Read register   ADD :0x0823    EDAT :0xfedcba98    RDAT :0xffffffff
# ---- [Error      ]LBUS Read register   ADD :0x0824    EDAT :0x5a5a5a5a    RDAT :0xffffffff
# ---- [Error      ]LBUS Read register   ADD :0x0825    EDAT :0xa5a5a5a5    RDAT :0xffffffff
# ---- [Error      ]LBUS Read register   ADD :0x0826    EDAT :0x00000000    RDAT :0xffffffff
# ---- [Success  ]LBUS Read register   ADD :0x0827    EDAT :0xffffffff    RDAT :0xffffffff
# ---- [Error      ]LBUS Read register   ADD :0x0c20    EDAT :0x01234567    RDAT :0xffffffff
# ---- [Error      ]LBUS Read register   ADD :0x0c21    EDAT :0x76543210    RDAT :0xffffffff
# ---- [Error      ]LBUS Read register   ADD :0x0c22    EDAT :0x89abcdef    RDAT :0xffffffff
# ---- [Error      ]LBUS Read register   ADD :0x0c23    EDAT :0xfedcba98    RDAT :0xffffffff
# ---- [Error      ]LBUS Read register   ADD :0x0c24    EDAT :0x5a5a5a5a    RDAT :0xffffffff
# ---- [Error      ]LBUS Read register   ADD :0x0c25    EDAT :0xa5a5a5a5    RDAT :0xffffffff
# ---- [Error      ]LBUS Read register   ADD :0x0c26    EDAT :0x00000000    RDAT :0xffffffff
# ---- [Success  ]LBUS Read register   ADD :0x0c27    EDAT :0xffffffff    RDAT :0xffffffff
# ---- [Error      ]LBUS Read register   ADD :0x1020    EDAT :0x01234567    RDAT :0xffffffff
# ---- [Error      ]LBUS Read register   ADD :0x1021    EDAT :0x76543210    RDAT :0xffffffff
# ---- [Error      ]LBUS Read register   ADD :0x1022    EDAT :0x89abcdef    RDAT :0xffffffff
# ---- [Error      ]LBUS Read register   ADD :0x1023    EDAT :0xfedcba98    RDAT :0xffffffff
# ---- [Error      ]LBUS Read register   ADD :0x1024    EDAT :0x5a5a5a5a    RDAT :0xffffffff
# ---- [Error      ]LBUS Read register   ADD :0x1025    EDAT :0xa5a5a5a5    RDAT :0xffffffff
# ---- [Error      ]LBUS Read register   ADD :0x1026    EDAT :0x00000000    RDAT :0xffffffff
# ---- [Success  ]LBUS Read register   ADD :0x1027    EDAT :0xffffffff    RDAT :0xffffffff
# ---- [Error      ]LBUS Read register   ADD :0x1420    EDAT :0x01234567    RDAT :0xffffffff
# ---- [Error      ]LBUS Read register   ADD :0x1421    EDAT :0x76543210    RDAT :0xffffffff
# ---- [Error      ]LBUS Read register   ADD :0x1422    EDAT :0x89abcdef    RDAT :0xffffffff
# ---- [Error      ]LBUS Read register   ADD :0x1423    EDAT :0xfedcba98    RDAT :0xffffffff
# ---- [Error      ]LBUS Read register   ADD :0x1424    EDAT :0x5a5a5a5a    RDAT :0xffffffff
# ---- [Error      ]LBUS Read register   ADD :0x1425    EDAT :0xa5a5a5a5    RDAT :0xffffffff
# ---- [Error      ]LBUS Read register   ADD :0x1426    EDAT :0x00000000    RDAT :0xffffffff
# ---- [Success  ]LBUS Read register   ADD :0x1427    EDAT :0xffffffff    RDAT :0xffffffff
# ---- [Error      ]LBUS Read register   ADD :0x1820    EDAT :0x01234567    RDAT :0xffffffff
# ---- [Error      ]LBUS Read register   ADD :0x1821    EDAT :0x76543210    RDAT :0xffffffff
# ---- [Error      ]LBUS Read register   ADD :0x1822    EDAT :0x89abcdef    RDAT :0xffffffff
# ---- [Error      ]LBUS Read register   ADD :0x1823    EDAT :0xfedcba98    RDAT :0xffffffff
# ---- [Error      ]LBUS Read register   ADD :0x1824    EDAT :0x5a5a5a5a    RDAT :0xffffffff
# ---- [Error      ]LBUS Read register   ADD :0x1825    EDAT :0xa5a5a5a5    RDAT :0xffffffff
# ---- [Error      ]LBUS Read register   ADD :0x1826    EDAT :0x00000000    RDAT :0xffffffff
# ---- [Success  ]LBUS Read register   ADD :0x1827    EDAT :0xffffffff    RDAT :0xffffffff
# ---- [Error      ]LBUS Read register   ADD :0x1c20    EDAT :0x01234567    RDAT :0xffffffff
# ---- [Error      ]LBUS Read register   ADD :0x1c21    EDAT :0x76543210    RDAT :0xffffffff
# ---- [Error      ]LBUS Read register   ADD :0x1c22    EDAT :0x89abcdef    RDAT :0xffffffff
# ---- [Error      ]LBUS Read register   ADD :0x1c23    EDAT :0xfedcba98    RDAT :0xffffffff
# ---- [Error      ]LBUS Read register   ADD :0x1c24    EDAT :0x5a5a5a5a    RDAT :0xffffffff
# ---- [Error      ]LBUS Read register   ADD :0x1c25    EDAT :0xa5a5a5a5    RDAT :0xffffffff
# ---- [Error      ]LBUS Read register   ADD :0x1c26    EDAT :0x00000000    RDAT :0xffffffff
# ---- [Success  ]LBUS Read register   ADD :0x1c27    EDAT :0xffffffff    RDAT :0xffffffff
# ---- Wait for 255 cycles
# ---- Wait for 255 cycles end
# ---- tb_04 test completed !
#  
# ******<<<<<<<<<<<<<<<<<<<<<<Simulation tb_04 Fail End>>>>>>>>>>>>>>>>>>>>>>> ******
#  
do do/tb_05.do
# Model Technology ModelSim SE-64 vlog 2020.4 Compiler 2020.10 Oct 13 2020
# Start time: 09:28:36 on Feb 18,2025
# vlog -reportprogress 300 "+define+tb_05=1" -work work sim_model\define\define.v 
# End time: 09:28:36 on Feb 18,2025, Elapsed time: 0:00:00
# Errors: 0, Warnings: 0
# Model Technology ModelSim SE-64 vlog 2020.4 Compiler 2020.10 Oct 13 2020
# Start time: 09:28:36 on Feb 18,2025
# vlog -reportprogress 300 "+define+tb_05=1" -work work "+incdir+{sim_modeldefine}" sim_model\tb_top.v 
# -- Compiling module tb_top
# 
# Top level modules:
# 	tb_top
# End time: 09:28:36 on Feb 18,2025, Elapsed time: 0:00:00
# Errors: 0, Warnings: 0
# End time: 09:28:38 on Feb 18,2025, Elapsed time: 0:00:21
# Errors: 0, Warnings: 9
# vsim -t 1ps -c -l ./log/vsim_tb_04_report.log work.tb_top -L UNISIMS_VER -L SECUREIP -L SIMPRIMS_VER -L work -voptargs="+acc" work.glbl -wav ./wave/tb_05.wlf 
# Start time: 09:28:38 on Feb 18,2025
# ** Note: (vsim-3813) Design is being optimized due to module recompilation...
# Loading work.tb_top(fast)
# Loading work.SIM_MODEL(fast)
# Loading work.PC_SIM(fast)
# Loading work.PCIE_IF_GX(fast)
# Loading work.PCIE_RX(fast)
# Loading work.sfifo_i180_o180_d512(fast)
# Loading UNISIMS_VER.GND(fast)
# Loading UNISIMS_VER.LUT1(fast)
# Loading UNISIMS_VER.LUT2(fast)
# Loading UNISIMS_VER.LUT3(fast)
# Loading UNISIMS_VER.FDRE(fast)
# Loading UNISIMS_VER.CARRY4(fast)
# Loading UNISIMS_VER.LUT5(fast)
# Loading UNISIMS_VER.LUT5(fast__1)
# Loading UNISIMS_VER.FDSE(fast)
# Loading UNISIMS_VER.LUT4(fast)
# Loading UNISIMS_VER.LUT4(fast__1)
# Loading UNISIMS_VER.LUT3(fast__1)
# Loading UNISIMS_VER.LUT3(fast__2)
# Loading UNISIMS_VER.LUT4(fast__2)
# Loading UNISIMS_VER.LUT6(fast)
# Loading UNISIMS_VER.LUT2(fast__1)
# Loading UNISIMS_VER.LUT3(fast__3)
# Loading UNISIMS_VER.LUT4(fast__3)
# Loading UNISIMS_VER.LUT5(fast__2)
# Loading UNISIMS_VER.LUT6(fast__1)
# Loading UNISIMS_VER.LUT6(fast__2)
# Loading UNISIMS_VER.LUT4(fast__4)
# Loading UNISIMS_VER.LUT2(fast__2)
# Loading UNISIMS_VER.LUT5(fast__3)
# Loading UNISIMS_VER.LUT4(fast__5)
# Loading UNISIMS_VER.LUT6(fast__3)
# Loading UNISIMS_VER.LUT1(fast__1)
# Loading UNISIMS_VER.RAMB18E1(fast)
# Loading UNISIMS_VER.RB18_INTERNAL_VLOG(fast)
# Loading UNISIMS_VER.RAMB36E1(fast)
# Loading UNISIMS_VER.RB36_INTERNAL_VLOG(fast)
# Loading work.PCIE_TX(fast)
# Loading work.sfifo_i72o72_d512(fast)
# Loading UNISIMS_VER.LUT2(fast__3)
# Loading UNISIMS_VER.RAMB36E1(fast__1)
# Loading UNISIMS_VER.RB36_INTERNAL_VLOG(fast__1)
# Loading work.PCIE_REG_IF(fast)
# Loading work.PCIE_REG_ACK(fast)
# Loading work.PCIE_REG_INT(fast)
# Loading work.PCIE_DN_REG(fast)
# Loading work.PCIE_UP_REG(fast)
# Loading work.PCIE_DN_CPLD_IF(fast)
# Loading work.PCIE_DN_IF(fast)
# Loading work.afifo_i90o90_d512(fast)
# Loading work.afifo_i90o90_d512_xpm_cdc_gray(fast)
# Loading UNISIMS_VER.LUT4(fast__6)
# Loading UNISIMS_VER.LUT3(fast__4)
# Loading UNISIMS_VER.LUT6(fast__4)
# Loading UNISIMS_VER.LUT5(fast__4)
# Loading work.afifo_i90o90_d512_xpm_cdc_gray__2(fast)
# Loading UNISIMS_VER.FDPE(fast)
# Loading UNISIMS_VER.LUT4(fast__7)
# Loading UNISIMS_VER.FDCE(fast)
# Loading UNISIMS_VER.LUT4(fast__8)
# Loading UNISIMS_VER.LUT6(fast__5)
# Loading UNISIMS_VER.LUT5(fast__5)
# Loading UNISIMS_VER.LUT6(fast__6)
# Loading UNISIMS_VER.LUT5(fast__6)
# Loading UNISIMS_VER.LUT5(fast__7)
# Loading UNISIMS_VER.LUT5(fast__8)
# Loading UNISIMS_VER.LUT5(fast__9)
# Loading UNISIMS_VER.RAM64M(fast)
# Loading UNISIMS_VER.LUT6(fast__7)
# Loading UNISIMS_VER.MUXF7(fast)
# Loading UNISIMS_VER.LUT2(fast__4)
# Loading work.afifo_i90o90_d512_xpm_cdc_async_rst(fast)
# Loading UNISIMS_VER.FDPE(fast__1)
# Loading UNISIMS_VER.LUT3(fast__5)
# Loading UNISIMS_VER.LUT5(fast__10)
# Loading work.afifo_i90o90_d512_xpm_cdc_single(fast)
# Loading work.afifo_i90o90_d512_xpm_cdc_single__2(fast)
# Loading work.afifo_i90o90_d512_xpm_cdc_async_rst__1(fast)
# Loading work.PCIE_DN_LBUF(fast)
# Loading work.afifo_i72o72_d2048(fast)
# Loading work.afifo_i72o72_d2048_xpm_cdc_gray(fast)
# Loading work.afifo_i72o72_d2048_xpm_cdc_gray__2(fast)
# Loading UNISIMS_VER.LUT6(fast__8)
# Loading UNISIMS_VER.LUT6(fast__9)
# Loading UNISIMS_VER.LUT6(fast__10)
# Loading UNISIMS_VER.LUT6(fast__11)
# Loading UNISIMS_VER.LUT6(fast__12)
# Loading work.afifo_i72o72_d2048_xpm_cdc_async_rst(fast)
# Loading work.afifo_i72o72_d2048_xpm_cdc_single(fast)
# Loading work.afifo_i72o72_d2048_xpm_cdc_single__2(fast)
# Loading work.afifo_i72o72_d2048_xpm_cdc_async_rst__1(fast)
# Loading work.PULSE_GEN(fast)
# Loading work.PCIE_DN_DFK(fast)
# Loading work.PCIE_DN_DEK(fast)
# Loading work.PCIE_DN_FBUF(fast)
# Loading work.sfifo_i108o108_d512(fast)
# Loading work.PCIE_DN_DMA(fast)
# Loading work.PCIE_DN_CPLD_UEK(fast)
# Loading work.PCIE_DN_CPLD_DFK(fast)
# Loading work.PCIE_DN_CPLD_DPK(fast)
# Loading work.sram_i64o64_d256(fast)
# Loading UNISIMS_VER.SRL16E(fast)
# Loading UNISIMS_VER.RAMB36E1(fast__2)
# Loading UNISIMS_VER.RB36_INTERNAL_VLOG(fast__2)
# Loading UNISIMS_VER.LUT3(fast__6)
# Loading UNISIMS_VER.LUT4(fast__9)
# Loading work.PCIE_DN_DFK(fast__1)
# Loading work.PCIE_DN_DEK(fast__1)
# Loading work.PCIE_DN_DMA(fast__1)
# Loading work.PCIE_DN_ARBIT(fast)
# Loading work.PCIE_UP_IF(fast)
# Loading work.PCIE_UP_LBUF(fast)
# Loading work.PCIE_UP_EBUF(fast)
# Loading work.PCIE_UP_UFK(fast)
# Loading work.PCIE_UP_UEK(fast)
# Loading work.PCIE_UP_DMA(fast)
# Loading work.PCIE_UP_UFK(fast__1)
# Loading work.PCIE_UP_UEK(fast__1)
# Loading work.PCIE_UP_DMA(fast__1)
# Loading work.PCIE_UP_ARBIT(fast)
# Loading work.BIST_REG(fast)
# Loading work.glbl(fast)
# ** Warning: (vsim-3015) [PCDPC] - Port size (12) does not match connection size (16) for port 'DRAM_WR_SIZE'. The port definition is at: ../rtl/05_pc_sim/pc_sim.v(26).
#    Time: 0 ps  Iteration: 0  Instance: /tb_top/U_PC_SIM File: sim_model/tb_top.v Line: 708
# ** Warning: (vsim-3015) [PCDPC] - Port size (8) does not match connection size (10) for port 'addra'. The port definition is at: ../rtl/00_xilinx_ip/0_sbram/sram_i64o64_d256/sram_i64o64_d256_sim_netlist.V(20).
#    Time: 0 ps  Iteration: 0  Instance: /tb_top/U_PCIE_IF_GX/GROUP_DN[0]/U_PCIE_DN_CPLD_DPK/U_DBUF File: ../rtl/03_pcie_if_gx/pcie_dn_cpld_dpk.v Line: 158
# ** Warning: (vsim-3015) [PCDPC] - Port size (8) does not match connection size (10) for port 'addrb'. The port definition is at: ../rtl/00_xilinx_ip/0_sbram/sram_i64o64_d256/sram_i64o64_d256_sim_netlist.V(24).
#    Time: 0 ps  Iteration: 0  Instance: /tb_top/U_PCIE_IF_GX/GROUP_DN[0]/U_PCIE_DN_CPLD_DPK/U_DBUF File: ../rtl/03_pcie_if_gx/pcie_dn_cpld_dpk.v Line: 158
# ** Warning: (vsim-3015) [PCDPC] - Port size (1) does not match connection size (64) for port 'rsta_busy'. The port definition is at: ../rtl/00_xilinx_ip/0_sbram/sram_i64o64_d256/sram_i64o64_d256_sim_netlist.V(26).
#    Time: 0 ps  Iteration: 0  Instance: /tb_top/U_PCIE_IF_GX/GROUP_DN[0]/U_PCIE_DN_CPLD_DPK/U_DBUF File: ../rtl/03_pcie_if_gx/pcie_dn_cpld_dpk.v Line: 158
# ** Warning: (vsim-3015) [PCDPC] - Port size (1) does not match connection size (64) for port 'rstb_busy'. The port definition is at: ../rtl/00_xilinx_ip/0_sbram/sram_i64o64_d256/sram_i64o64_d256_sim_netlist.V(27).
#    Time: 0 ps  Iteration: 0  Instance: /tb_top/U_PCIE_IF_GX/GROUP_DN[0]/U_PCIE_DN_CPLD_DPK/U_DBUF File: ../rtl/03_pcie_if_gx/pcie_dn_cpld_dpk.v Line: 158
# ** Warning: (vsim-3015) [PCDPC] - Port size (8) does not match connection size (10) for port 'addra'. The port definition is at: ../rtl/00_xilinx_ip/0_sbram/sram_i64o64_d256/sram_i64o64_d256_sim_netlist.V(20).
#    Time: 0 ps  Iteration: 0  Instance: /tb_top/U_PCIE_IF_GX/GROUP_DN[1]/U_PCIE_DN_CPLD_DPK/U_DBUF File: ../rtl/03_pcie_if_gx/pcie_dn_cpld_dpk.v Line: 158
# ** Warning: (vsim-3015) [PCDPC] - Port size (8) does not match connection size (10) for port 'addrb'. The port definition is at: ../rtl/00_xilinx_ip/0_sbram/sram_i64o64_d256/sram_i64o64_d256_sim_netlist.V(24).
#    Time: 0 ps  Iteration: 0  Instance: /tb_top/U_PCIE_IF_GX/GROUP_DN[1]/U_PCIE_DN_CPLD_DPK/U_DBUF File: ../rtl/03_pcie_if_gx/pcie_dn_cpld_dpk.v Line: 158
# ** Warning: (vsim-3015) [PCDPC] - Port size (1) does not match connection size (64) for port 'rsta_busy'. The port definition is at: ../rtl/00_xilinx_ip/0_sbram/sram_i64o64_d256/sram_i64o64_d256_sim_netlist.V(26).
#    Time: 0 ps  Iteration: 0  Instance: /tb_top/U_PCIE_IF_GX/GROUP_DN[1]/U_PCIE_DN_CPLD_DPK/U_DBUF File: ../rtl/03_pcie_if_gx/pcie_dn_cpld_dpk.v Line: 158
# ** Warning: (vsim-3015) [PCDPC] - Port size (1) does not match connection size (64) for port 'rstb_busy'. The port definition is at: ../rtl/00_xilinx_ip/0_sbram/sram_i64o64_d256/sram_i64o64_d256_sim_netlist.V(27).
#    Time: 0 ps  Iteration: 0  Instance: /tb_top/U_PCIE_IF_GX/GROUP_DN[1]/U_PCIE_DN_CPLD_DPK/U_DBUF File: ../rtl/03_pcie_if_gx/pcie_dn_cpld_dpk.v Line: 158
# ** UI-Msg: (vish-4014) No objects found matching '/tb_top/U_FPGA_TOP_SIMA/U_REG_BIST_0/REG_WR_REQ'.
# Executing ONERROR command at macro ./wave_do/wave_tb_05.do line 18
# ** UI-Msg: (vish-4014) No objects found matching '/tb_top/U_FPGA_TOP_SIMA/U_REG_BIST_0/REG_RD_REQ'.
# Executing ONERROR command at macro ./wave_do/wave_tb_05.do line 19
# ** UI-Msg: (vish-4014) No objects found matching '/tb_top/U_FPGA_TOP_SIMA/U_REG_BIST_0/REG_WR_ACK'.
# Executing ONERROR command at macro ./wave_do/wave_tb_05.do line 20
# ** UI-Msg: (vish-4014) No objects found matching '/tb_top/U_FPGA_TOP_SIMA/U_REG_BIST_0/REG_RD_ACK'.
# Executing ONERROR command at macro ./wave_do/wave_tb_05.do line 21
# ** UI-Msg: (vish-4014) No objects found matching '/tb_top/U_FPGA_TOP_SIMA/U_REG_BIST_0/REG_WR_DATA'.
# Executing ONERROR command at macro ./wave_do/wave_tb_05.do line 22
# ** UI-Msg: (vish-4014) No objects found matching '/tb_top/U_FPGA_TOP_SIMA/U_REG_BIST_0/REG_RD_DATA'.
# Executing ONERROR command at macro ./wave_do/wave_tb_05.do line 23
# ** UI-Msg: (vish-4014) No objects found matching '/tb_top/U_FPGA_TOP_SIMA/U_REG_BIST_0/REG_OP_ADDR'.
# Executing ONERROR command at macro ./wave_do/wave_tb_05.do line 24
# ** UI-Msg: (vish-4014) No objects found matching '/tb_top/U_FPGA_TOP_SIMA/U_REG_BIST_0/s_REG_FPGA_VER0_EN'.
# Executing ONERROR command at macro ./wave_do/wave_tb_05.do line 26
# ** UI-Msg: (vish-4014) No objects found matching '/tb_top/U_FPGA_TOP_SIMA/U_REG_BIST_0/s_REG_FPGA_VER1_EN'.
# Executing ONERROR command at macro ./wave_do/wave_tb_05.do line 27
# ** UI-Msg: (vish-4014) No objects found matching '/tb_top/U_FPGA_TOP_SIMA/U_REG_BIST_0/s_REG_FPGA_VER2_EN'.
# Executing ONERROR command at macro ./wave_do/wave_tb_05.do line 28
# ** UI-Msg: (vish-4014) No objects found matching '/tb_top/U_FPGA_TOP_SIMA/U_REG_BIST_0/s_REG_FPGA_VER3_EN'.
# Executing ONERROR command at macro ./wave_do/wave_tb_05.do line 29
# ** UI-Msg: (vish-4014) No objects found matching '/tb_top/U_FPGA_TOP_SIMA/U_REG_BIST_0/s_REG_BORD_VER0_EN'.
# Executing ONERROR command at macro ./wave_do/wave_tb_05.do line 30
# ** UI-Msg: (vish-4014) No objects found matching '/tb_top/U_FPGA_TOP_SIMA/U_REG_BIST_0/s_REG_BORD_VER1_EN'.
# Executing ONERROR command at macro ./wave_do/wave_tb_05.do line 31
# ** UI-Msg: (vish-4014) No objects found matching '/tb_top/U_FPGA_TOP_SIM/*'.
# Executing ONERROR command at macro ./wave_do/wave_tb_05.do line 54
# ** UI-Msg: (vish-4014) No objects found matching '/tb_top/U_FPGA_TOP_SIM/U01_LBUS_TOP/*'.
# Executing ONERROR command at macro ./wave_do/wave_tb_05.do line 57
# ** UI-Msg: (vish-4014) No objects found matching '/tb_top/U_FPGA_TOP_SIM/U01_LBUS_TOP/U00_LBUS_IF/*'.
# Executing ONERROR command at macro ./wave_do/wave_tb_05.do line 60
# ** UI-Msg: (vish-4014) No objects found matching '/tb_top/U_FPGA_TOP_SIM/U01_LBUS_TOP/U01_REG_IF/*'.
# Executing ONERROR command at macro ./wave_do/wave_tb_05.do line 63
# ** UI-Msg: (vish-4014) No objects found matching '/tb_top/U_FPGA_TOP_SIM/U_FPGA_TOP_SIMA/*'.
# Executing ONERROR command at macro ./wave_do/wave_tb_05.do line 66
#  
# ******<<<<<<<<<<<<<<<<<<<<<<Simulation tb_05 start>>>>>>>>>>>>>>>>>>>>>>> ******
#  
# ---- Initial simulation
# ---- clock ---- 1111 ---- enable
# ---- Wait for  64 cycles
# Memory Collision Error on RAMB36E1 : tb_top.U_PCIE_IF_GX.GROUP_DN[1].U_PCIE_DN_CPLD_DPK.U_DBUF.U0.<protected>.<protected>.<protected>.<protected>.<protected>.<protected>.gen_sdp.gen_wide.INT_RAMB_SDP.chk_for_col_msg at simulation time 118.000 ns.
# A read was performed on address 803f (hex) of port A while a write was requested to the same address on port B.  The write will be successful however the read value on port A is unknown until the next CLKA cycle.
# Memory Collision Error on RAMB36E1 : tb_top.U_PCIE_IF_GX.GROUP_DN[0].U_PCIE_DN_CPLD_DPK.U_DBUF.U0.<protected>.<protected>.<protected>.<protected>.<protected>.<protected>.gen_sdp.gen_wide.INT_RAMB_SDP.chk_for_col_msg at simulation time 118.000 ns.
# A read was performed on address 803f (hex) of port A while a write was requested to the same address on port B.  The write will be successful however the read value on port A is unknown until the next CLKA cycle.
# Memory Collision Error on RAMB36E1 : tb_top.U_PCIE_IF_GX.GROUP_DN[1].U_PCIE_DN_CPLD_DPK.U_DBUF.U0.<protected>.<protected>.<protected>.<protected>.<protected>.<protected>.gen_sdp.gen_wide.INT_RAMB_SDP.chk_for_col_msg at simulation time 122.000 ns.
# A read was performed on address 803f (hex) of port A while a write was requested to the same address on port B.  The write will be successful however the read value on port A is unknown until the next CLKA cycle.
# Memory Collision Error on RAMB36E1 : tb_top.U_PCIE_IF_GX.GROUP_DN[0].U_PCIE_DN_CPLD_DPK.U_DBUF.U0.<protected>.<protected>.<protected>.<protected>.<protected>.<protected>.gen_sdp.gen_wide.INT_RAMB_SDP.chk_for_col_msg at simulation time 122.000 ns.
# A read was performed on address 803f (hex) of port A while a write was requested to the same address on port B.  The write will be successful however the read value on port A is unknown until the next CLKA cycle.
# Memory Collision Error on RAMB36E1 : tb_top.U_PCIE_IF_GX.GROUP_DN[1].U_PCIE_DN_CPLD_DPK.U_DBUF.U0.<protected>.<protected>.<protected>.<protected>.<protected>.<protected>.gen_sdp.gen_wide.INT_RAMB_SDP.chk_for_col_msg at simulation time 126.000 ns.
# A read was performed on address 803f (hex) of port A while a write was requested to the same address on port B.  The write will be successful however the read value on port A is unknown until the next CLKA cycle.
# Memory Collision Error on RAMB36E1 : tb_top.U_PCIE_IF_GX.GROUP_DN[0].U_PCIE_DN_CPLD_DPK.U_DBUF.U0.<protected>.<protected>.<protected>.<protected>.<protected>.<protected>.gen_sdp.gen_wide.INT_RAMB_SDP.chk_for_col_msg at simulation time 126.000 ns.
# A read was performed on address 803f (hex) of port A while a write was requested to the same address on port B.  The write will be successful however the read value on port A is unknown until the next CLKA cycle.
# Memory Collision Error on RAMB36E1 : tb_top.U_PCIE_IF_GX.GROUP_DN[1].U_PCIE_DN_CPLD_DPK.U_DBUF.U0.<protected>.<protected>.<protected>.<protected>.<protected>.<protected>.gen_sdp.gen_wide.INT_RAMB_SDP.chk_for_col_msg at simulation time 130.000 ns.
# A read was performed on address 803f (hex) of port A while a write was requested to the same address on port B.  The write will be successful however the read value on port A is unknown until the next CLKA cycle.
# Memory Collision Error on RAMB36E1 : tb_top.U_PCIE_IF_GX.GROUP_DN[0].U_PCIE_DN_CPLD_DPK.U_DBUF.U0.<protected>.<protected>.<protected>.<protected>.<protected>.<protected>.gen_sdp.gen_wide.INT_RAMB_SDP.chk_for_col_msg at simulation time 130.000 ns.
# A read was performed on address 803f (hex) of port A while a write was requested to the same address on port B.  The write will be successful however the read value on port A is unknown until the next CLKA cycle.
# ---- Wait for  64 cycles end
# ---- Wait for  64 cycles
# ---- Wait for  64 cycles end
# ---- LBUS BRAM write   ADD :0x00010000    SIZE :0x100
# ---- LBUS BRAM write end
# ---- LBUS BRAM write   ADD :0x00020000    SIZE :0x100
# ---- LBUS BRAM write end
# ---- LBUS BRAM write   ADD :0x00040000    SIZE :0x100
# ---- LBUS BRAM write end
# ---- LBUS BRAM write   ADD :0x00080000    SIZE :0x100
# ---- LBUS BRAM write end
# ---- LBUS BRAM write   ADD :0x00100000    SIZE :0x100
# ---- LBUS BRAM write end
# ---- LBUS BRAM write   ADD :0x00200000    SIZE :0x100
# ---- LBUS BRAM write end
# ---- LBUS BRAM write   ADD :0x00400000    SIZE :0x100
# ---- LBUS BRAM write end
# ---- LBUS BRAM write   ADD :0x00800000    SIZE :0x100
# ---- LBUS BRAM write end
# ---- LBUS BRAM read   ADD :0x00010000    SIZE :0x100
# ---- [Error      ]Read bram ADD :0x010000  EDAT :0x00000000  RDAT :0xffffffff
# ---- [Error      ]Read bram ADD :0x010001  EDAT :0x00000001  RDAT :0xffffffff
# ---- [Error      ]Read bram ADD :0x010002  EDAT :0x00000002  RDAT :0xffffffff
# ---- [Error      ]Read bram ADD :0x010003  EDAT :0x00000003  RDAT :0xffffffff
# ---- [Error      ]Read bram ADD :0x010004  EDAT :0x00000004  RDAT :0xffffffff
# ---- [Error      ]Read bram ADD :0x010005  EDAT :0x00000005  RDAT :0xffffffff
# ---- [Error      ]Read bram ADD :0x010006  EDAT :0x00000006  RDAT :0xffffffff
# ---- [Error      ]Read bram ADD :0x010007  EDAT :0x00000007  RDAT :0xffffffff
# ---- [Error      ]Read bram ADD :0x010008  EDAT :0x00000008  RDAT :0xffffffff
# ---- [Error      ]Read bram ADD :0x010009  EDAT :0x00000009  RDAT :0xffffffff
# ---- [Error      ]Read bram ADD :0x01000a  EDAT :0x0000000a  RDAT :0xffffffff
# ---- [Error      ]Read bram ADD :0x01000b  EDAT :0x0000000b  RDAT :0xffffffff
# ---- [Error      ]Read bram ADD :0x01000c  EDAT :0x0000000c  RDAT :0xffffffff
# ---- [Error      ]Read bram ADD :0x01000d  EDAT :0x0000000d  RDAT :0xffffffff
# ---- [Error      ]Read bram ADD :0x01000e  EDAT :0x0000000e  RDAT :0xffffffff
# ---- [Error      ]Read bram ADD :0x01000f  EDAT :0x0000000f  RDAT :0xffffffff
# ---- [Error      ]Read bram ADD :0x010010  EDAT :0x00000010  RDAT :0xffffffff
# ---- [Error      ]Read bram ADD :0x010011  EDAT :0x00000011  RDAT :0xffffffff
# ---- [Error      ]Read bram ADD :0x010012  EDAT :0x00000012  RDAT :0xffffffff
# ---- [Error      ]Read bram ADD :0x010013  EDAT :0x00000013  RDAT :0xffffffff
# ---- [Error      ]Read bram ADD :0x010014  EDAT :0x00000014  RDAT :0xffffffff
# ---- [Error      ]Read bram ADD :0x010015  EDAT :0x00000015  RDAT :0xffffffff
# ---- [Error      ]Read bram ADD :0x010016  EDAT :0x00000016  RDAT :0xffffffff
# ---- [Error      ]Read bram ADD :0x010017  EDAT :0x00000017  RDAT :0xffffffff
# ---- [Error      ]Read bram ADD :0x010018  EDAT :0x00000018  RDAT :0xffffffff
# ---- [Error      ]Read bram ADD :0x010019  EDAT :0x00000019  RDAT :0xffffffff
# ---- [Error      ]Read bram ADD :0x01001a  EDAT :0x0000001a  RDAT :0xffffffff
# ---- [Error      ]Read bram ADD :0x01001b  EDAT :0x0000001b  RDAT :0xffffffff
# ---- [Error      ]Read bram ADD :0x01001c  EDAT :0x0000001c  RDAT :0xffffffff
# ---- [Error      ]Read bram ADD :0x01001d  EDAT :0x0000001d  RDAT :0xffffffff
# ---- [Error      ]Read bram ADD :0x01001e  EDAT :0x0000001e  RDAT :0xffffffff
# ---- [Error      ]Read bram ADD :0x01001f  EDAT :0x0000001f  RDAT :0xffffffff
# ---- [Error      ]Read bram ADD :0x010020  EDAT :0x00000020  RDAT :0xffffffff
# ---- [Error      ]Read bram ADD :0x010021  EDAT :0x00000021  RDAT :0xffffffff
# ---- [Error      ]Read bram ADD :0x010022  EDAT :0x00000022  RDAT :0xffffffff
# ---- [Error      ]Read bram ADD :0x010023  EDAT :0x00000023  RDAT :0xffffffff
# ---- [Error      ]Read bram ADD :0x010024  EDAT :0x00000024  RDAT :0xffffffff
# ---- [Error      ]Read bram ADD :0x010025  EDAT :0x00000025  RDAT :0xffffffff
# ---- [Error      ]Read bram ADD :0x010026  EDAT :0x00000026  RDAT :0xffffffff
# ---- [Error      ]Read bram ADD :0x010027  EDAT :0x00000027  RDAT :0xffffffff
# ---- [Error      ]Read bram ADD :0x010028  EDAT :0x00000028  RDAT :0xffffffff
# ---- [Error      ]Read bram ADD :0x010029  EDAT :0x00000029  RDAT :0xffffffff
# ---- [Error      ]Read bram ADD :0x01002a  EDAT :0x0000002a  RDAT :0xffffffff
# ---- [Error      ]Read bram ADD :0x01002b  EDAT :0x0000002b  RDAT :0xffffffff
# ---- [Error      ]Read bram ADD :0x01002c  EDAT :0x0000002c  RDAT :0xffffffff
# ---- [Error      ]Read bram ADD :0x01002d  EDAT :0x0000002d  RDAT :0xffffffff
# ---- [Error      ]Read bram ADD :0x01002e  EDAT :0x0000002e  RDAT :0xffffffff
# ---- [Error      ]Read bram ADD :0x01002f  EDAT :0x0000002f  RDAT :0xffffffff
# ---- [Error      ]Read bram ADD :0x010030  EDAT :0x00000030  RDAT :0xffffffff
# ---- [Error      ]Read bram ADD :0x010031  EDAT :0x00000031  RDAT :0xffffffff
# ---- [Error      ]Read bram ADD :0x010032  EDAT :0x00000032  RDAT :0xffffffff
# ---- [Error      ]Read bram ADD :0x010033  EDAT :0x00000033  RDAT :0xffffffff
# ---- [Error      ]Read bram ADD :0x010034  EDAT :0x00000034  RDAT :0xffffffff
# ---- [Error      ]Read bram ADD :0x010035  EDAT :0x00000035  RDAT :0xffffffff
# ---- [Error      ]Read bram ADD :0x010036  EDAT :0x00000036  RDAT :0xffffffff
# ---- [Error      ]Read bram ADD :0x010037  EDAT :0x00000037  RDAT :0xffffffff
# ---- [Error      ]Read bram ADD :0x010038  EDAT :0x00000038  RDAT :0xffffffff
# ---- [Error      ]Read bram ADD :0x010039  EDAT :0x00000039  RDAT :0xffffffff
# ---- [Error      ]Read bram ADD :0x01003a  EDAT :0x0000003a  RDAT :0xffffffff
# ---- [Error      ]Read bram ADD :0x01003b  EDAT :0x0000003b  RDAT :0xffffffff
# ---- [Error      ]Read bram ADD :0x01003c  EDAT :0x0000003c  RDAT :0xffffffff
# ---- [Error      ]Read bram ADD :0x01003d  EDAT :0x0000003d  RDAT :0xffffffff
# ---- [Error      ]Read bram ADD :0x01003e  EDAT :0x0000003e  RDAT :0xffffffff
# ---- [Error      ]Read bram ADD :0x01003f  EDAT :0x0000003f  RDAT :0xffffffff
# ---- [Error      ]LBUS BRAM   ADD :0x00010000    SIZE :0x100 faild read end
# ---- LBUS BRAM read   ADD :0x00020000    SIZE :0x100
# ---- [Error      ]Read bram ADD :0x020000  EDAT :0x00000000  RDAT :0xffffffff
# ---- [Error      ]Read bram ADD :0x020001  EDAT :0x00000001  RDAT :0xffffffff
# ---- [Error      ]Read bram ADD :0x020002  EDAT :0x00000002  RDAT :0xffffffff
# ---- [Error      ]Read bram ADD :0x020003  EDAT :0x00000003  RDAT :0xffffffff
# ---- [Error      ]Read bram ADD :0x020004  EDAT :0x00000004  RDAT :0xffffffff
# ---- [Error      ]Read bram ADD :0x020005  EDAT :0x00000005  RDAT :0xffffffff
# ---- [Error      ]Read bram ADD :0x020006  EDAT :0x00000006  RDAT :0xffffffff
# ---- [Error      ]Read bram ADD :0x020007  EDAT :0x00000007  RDAT :0xffffffff
# ---- [Error      ]Read bram ADD :0x020008  EDAT :0x00000008  RDAT :0xffffffff
# ---- [Error      ]Read bram ADD :0x020009  EDAT :0x00000009  RDAT :0xffffffff
# ---- [Error      ]Read bram ADD :0x02000a  EDAT :0x0000000a  RDAT :0xffffffff
# ---- [Error      ]Read bram ADD :0x02000b  EDAT :0x0000000b  RDAT :0xffffffff
# ---- [Error      ]Read bram ADD :0x02000c  EDAT :0x0000000c  RDAT :0xffffffff
# ---- [Error      ]Read bram ADD :0x02000d  EDAT :0x0000000d  RDAT :0xffffffff
# ---- [Error      ]Read bram ADD :0x02000e  EDAT :0x0000000e  RDAT :0xffffffff
# ---- [Error      ]Read bram ADD :0x02000f  EDAT :0x0000000f  RDAT :0xffffffff
# ---- [Error      ]Read bram ADD :0x020010  EDAT :0x00000010  RDAT :0xffffffff
# ---- [Error      ]Read bram ADD :0x020011  EDAT :0x00000011  RDAT :0xffffffff
# ---- [Error      ]Read bram ADD :0x020012  EDAT :0x00000012  RDAT :0xffffffff
# ---- [Error      ]Read bram ADD :0x020013  EDAT :0x00000013  RDAT :0xffffffff
# ---- [Error      ]Read bram ADD :0x020014  EDAT :0x00000014  RDAT :0xffffffff
# ---- [Error      ]Read bram ADD :0x020015  EDAT :0x00000015  RDAT :0xffffffff
# ---- [Error      ]Read bram ADD :0x020016  EDAT :0x00000016  RDAT :0xffffffff
# ---- [Error      ]Read bram ADD :0x020017  EDAT :0x00000017  RDAT :0xffffffff
# ---- [Error      ]Read bram ADD :0x020018  EDAT :0x00000018  RDAT :0xffffffff
# ---- [Error      ]Read bram ADD :0x020019  EDAT :0x00000019  RDAT :0xffffffff
# ---- [Error      ]Read bram ADD :0x02001a  EDAT :0x0000001a  RDAT :0xffffffff
# ---- [Error      ]Read bram ADD :0x02001b  EDAT :0x0000001b  RDAT :0xffffffff
# ---- [Error      ]Read bram ADD :0x02001c  EDAT :0x0000001c  RDAT :0xffffffff
# ---- [Error      ]Read bram ADD :0x02001d  EDAT :0x0000001d  RDAT :0xffffffff
# ---- [Error      ]Read bram ADD :0x02001e  EDAT :0x0000001e  RDAT :0xffffffff
# ---- [Error      ]Read bram ADD :0x02001f  EDAT :0x0000001f  RDAT :0xffffffff
# ---- [Error      ]Read bram ADD :0x020020  EDAT :0x00000020  RDAT :0xffffffff
# ---- [Error      ]Read bram ADD :0x020021  EDAT :0x00000021  RDAT :0xffffffff
# ---- [Error      ]Read bram ADD :0x020022  EDAT :0x00000022  RDAT :0xffffffff
# ---- [Error      ]Read bram ADD :0x020023  EDAT :0x00000023  RDAT :0xffffffff
# ---- [Error      ]Read bram ADD :0x020024  EDAT :0x00000024  RDAT :0xffffffff
# ---- [Error      ]Read bram ADD :0x020025  EDAT :0x00000025  RDAT :0xffffffff
# ---- [Error      ]Read bram ADD :0x020026  EDAT :0x00000026  RDAT :0xffffffff
# ---- [Error      ]Read bram ADD :0x020027  EDAT :0x00000027  RDAT :0xffffffff
# ---- [Error      ]Read bram ADD :0x020028  EDAT :0x00000028  RDAT :0xffffffff
# ---- [Error      ]Read bram ADD :0x020029  EDAT :0x00000029  RDAT :0xffffffff
# ---- [Error      ]Read bram ADD :0x02002a  EDAT :0x0000002a  RDAT :0xffffffff
# ---- [Error      ]Read bram ADD :0x02002b  EDAT :0x0000002b  RDAT :0xffffffff
# ---- [Error      ]Read bram ADD :0x02002c  EDAT :0x0000002c  RDAT :0xffffffff
# ---- [Error      ]Read bram ADD :0x02002d  EDAT :0x0000002d  RDAT :0xffffffff
# ---- [Error      ]Read bram ADD :0x02002e  EDAT :0x0000002e  RDAT :0xffffffff
# ---- [Error      ]Read bram ADD :0x02002f  EDAT :0x0000002f  RDAT :0xffffffff
# ---- [Error      ]Read bram ADD :0x020030  EDAT :0x00000030  RDAT :0xffffffff
# ---- [Error      ]Read bram ADD :0x020031  EDAT :0x00000031  RDAT :0xffffffff
# ---- [Error      ]Read bram ADD :0x020032  EDAT :0x00000032  RDAT :0xffffffff
# ---- [Error      ]Read bram ADD :0x020033  EDAT :0x00000033  RDAT :0xffffffff
# ---- [Error      ]Read bram ADD :0x020034  EDAT :0x00000034  RDAT :0xffffffff
# ---- [Error      ]Read bram ADD :0x020035  EDAT :0x00000035  RDAT :0xffffffff
# ---- [Error      ]Read bram ADD :0x020036  EDAT :0x00000036  RDAT :0xffffffff
# ---- [Error      ]Read bram ADD :0x020037  EDAT :0x00000037  RDAT :0xffffffff
# ---- [Error      ]Read bram ADD :0x020038  EDAT :0x00000038  RDAT :0xffffffff
# ---- [Error      ]Read bram ADD :0x020039  EDAT :0x00000039  RDAT :0xffffffff
# ---- [Error      ]Read bram ADD :0x02003a  EDAT :0x0000003a  RDAT :0xffffffff
# ---- [Error      ]Read bram ADD :0x02003b  EDAT :0x0000003b  RDAT :0xffffffff
# ---- [Error      ]Read bram ADD :0x02003c  EDAT :0x0000003c  RDAT :0xffffffff
# ---- [Error      ]Read bram ADD :0x02003d  EDAT :0x0000003d  RDAT :0xffffffff
# ---- [Error      ]Read bram ADD :0x02003e  EDAT :0x0000003e  RDAT :0xffffffff
# ---- [Error      ]Read bram ADD :0x02003f  EDAT :0x0000003f  RDAT :0xffffffff
# ---- [Error      ]LBUS BRAM   ADD :0x00020000    SIZE :0x100 faild read end
# ---- LBUS BRAM read   ADD :0x00040000    SIZE :0x100
# ---- [Error      ]Read bram ADD :0x040000  EDAT :0x00000000  RDAT :0xffffffff
# ---- [Error      ]Read bram ADD :0x040001  EDAT :0x00000001  RDAT :0xffffffff
# ---- [Error      ]Read bram ADD :0x040002  EDAT :0x00000002  RDAT :0xffffffff
# ---- [Error      ]Read bram ADD :0x040003  EDAT :0x00000003  RDAT :0xffffffff
# ---- [Error      ]Read bram ADD :0x040004  EDAT :0x00000004  RDAT :0xffffffff
# ---- [Error      ]Read bram ADD :0x040005  EDAT :0x00000005  RDAT :0xffffffff
# ---- [Error      ]Read bram ADD :0x040006  EDAT :0x00000006  RDAT :0xffffffff
# ---- [Error      ]Read bram ADD :0x040007  EDAT :0x00000007  RDAT :0xffffffff
# ---- [Error      ]Read bram ADD :0x040008  EDAT :0x00000008  RDAT :0xffffffff
# ---- [Error      ]Read bram ADD :0x040009  EDAT :0x00000009  RDAT :0xffffffff
# ---- [Error      ]Read bram ADD :0x04000a  EDAT :0x0000000a  RDAT :0xffffffff
# ---- [Error      ]Read bram ADD :0x04000b  EDAT :0x0000000b  RDAT :0xffffffff
# ---- [Error      ]Read bram ADD :0x04000c  EDAT :0x0000000c  RDAT :0xffffffff
# ---- [Error      ]Read bram ADD :0x04000d  EDAT :0x0000000d  RDAT :0xffffffff
# ---- [Error      ]Read bram ADD :0x04000e  EDAT :0x0000000e  RDAT :0xffffffff
# ---- [Error      ]Read bram ADD :0x04000f  EDAT :0x0000000f  RDAT :0xffffffff
# ---- [Error      ]Read bram ADD :0x040010  EDAT :0x00000010  RDAT :0xffffffff
# ---- [Error      ]Read bram ADD :0x040011  EDAT :0x00000011  RDAT :0xffffffff
# ---- [Error      ]Read bram ADD :0x040012  EDAT :0x00000012  RDAT :0xffffffff
# ---- [Error      ]Read bram ADD :0x040013  EDAT :0x00000013  RDAT :0xffffffff
# ---- [Error      ]Read bram ADD :0x040014  EDAT :0x00000014  RDAT :0xffffffff
# ---- [Error      ]Read bram ADD :0x040015  EDAT :0x00000015  RDAT :0xffffffff
# ---- [Error      ]Read bram ADD :0x040016  EDAT :0x00000016  RDAT :0xffffffff
# ---- [Error      ]Read bram ADD :0x040017  EDAT :0x00000017  RDAT :0xffffffff
# ---- [Error      ]Read bram ADD :0x040018  EDAT :0x00000018  RDAT :0xffffffff
# ---- [Error      ]Read bram ADD :0x040019  EDAT :0x00000019  RDAT :0xffffffff
# ---- [Error      ]Read bram ADD :0x04001a  EDAT :0x0000001a  RDAT :0xffffffff
# ---- [Error      ]Read bram ADD :0x04001b  EDAT :0x0000001b  RDAT :0xffffffff
# ---- [Error      ]Read bram ADD :0x04001c  EDAT :0x0000001c  RDAT :0xffffffff
# ---- [Error      ]Read bram ADD :0x04001d  EDAT :0x0000001d  RDAT :0xffffffff
# ---- [Error      ]Read bram ADD :0x04001e  EDAT :0x0000001e  RDAT :0xffffffff
# ---- [Error      ]Read bram ADD :0x04001f  EDAT :0x0000001f  RDAT :0xffffffff
# ---- [Error      ]Read bram ADD :0x040020  EDAT :0x00000020  RDAT :0xffffffff
# ---- [Error      ]Read bram ADD :0x040021  EDAT :0x00000021  RDAT :0xffffffff
# ---- [Error      ]Read bram ADD :0x040022  EDAT :0x00000022  RDAT :0xffffffff
# ---- [Error      ]Read bram ADD :0x040023  EDAT :0x00000023  RDAT :0xffffffff
# ---- [Error      ]Read bram ADD :0x040024  EDAT :0x00000024  RDAT :0xffffffff
# ---- [Error      ]Read bram ADD :0x040025  EDAT :0x00000025  RDAT :0xffffffff
# ---- [Error      ]Read bram ADD :0x040026  EDAT :0x00000026  RDAT :0xffffffff
# ---- [Error      ]Read bram ADD :0x040027  EDAT :0x00000027  RDAT :0xffffffff
# ---- [Error      ]Read bram ADD :0x040028  EDAT :0x00000028  RDAT :0xffffffff
# ---- [Error      ]Read bram ADD :0x040029  EDAT :0x00000029  RDAT :0xffffffff
# ---- [Error      ]Read bram ADD :0x04002a  EDAT :0x0000002a  RDAT :0xffffffff
# ---- [Error      ]Read bram ADD :0x04002b  EDAT :0x0000002b  RDAT :0xffffffff
# ---- [Error      ]Read bram ADD :0x04002c  EDAT :0x0000002c  RDAT :0xffffffff
# ---- [Error      ]Read bram ADD :0x04002d  EDAT :0x0000002d  RDAT :0xffffffff
# ---- [Error      ]Read bram ADD :0x04002e  EDAT :0x0000002e  RDAT :0xffffffff
# ---- [Error      ]Read bram ADD :0x04002f  EDAT :0x0000002f  RDAT :0xffffffff
# ---- [Error      ]Read bram ADD :0x040030  EDAT :0x00000030  RDAT :0xffffffff
# ---- [Error      ]Read bram ADD :0x040031  EDAT :0x00000031  RDAT :0xffffffff
# ---- [Error      ]Read bram ADD :0x040032  EDAT :0x00000032  RDAT :0xffffffff
# ---- [Error      ]Read bram ADD :0x040033  EDAT :0x00000033  RDAT :0xffffffff
# ---- [Error      ]Read bram ADD :0x040034  EDAT :0x00000034  RDAT :0xffffffff
# ---- [Error      ]Read bram ADD :0x040035  EDAT :0x00000035  RDAT :0xffffffff
# ---- [Error      ]Read bram ADD :0x040036  EDAT :0x00000036  RDAT :0xffffffff
# ---- [Error      ]Read bram ADD :0x040037  EDAT :0x00000037  RDAT :0xffffffff
# ---- [Error      ]Read bram ADD :0x040038  EDAT :0x00000038  RDAT :0xffffffff
# ---- [Error      ]Read bram ADD :0x040039  EDAT :0x00000039  RDAT :0xffffffff
# ---- [Error      ]Read bram ADD :0x04003a  EDAT :0x0000003a  RDAT :0xffffffff
# ---- [Error      ]Read bram ADD :0x04003b  EDAT :0x0000003b  RDAT :0xffffffff
# ---- [Error      ]Read bram ADD :0x04003c  EDAT :0x0000003c  RDAT :0xffffffff
# ---- [Error      ]Read bram ADD :0x04003d  EDAT :0x0000003d  RDAT :0xffffffff
# ---- [Error      ]Read bram ADD :0x04003e  EDAT :0x0000003e  RDAT :0xffffffff
# ---- [Error      ]Read bram ADD :0x04003f  EDAT :0x0000003f  RDAT :0xffffffff
# ---- [Error      ]LBUS BRAM   ADD :0x00040000    SIZE :0x100 faild read end
# ---- LBUS BRAM read   ADD :0x00080000    SIZE :0x100
# ---- [Error      ]Read bram ADD :0x080000  EDAT :0x00000000  RDAT :0xffffffff
# ---- [Error      ]Read bram ADD :0x080001  EDAT :0x00000001  RDAT :0xffffffff
# ---- [Error      ]Read bram ADD :0x080002  EDAT :0x00000002  RDAT :0xffffffff
# ---- [Error      ]Read bram ADD :0x080003  EDAT :0x00000003  RDAT :0xffffffff
# ---- [Error      ]Read bram ADD :0x080004  EDAT :0x00000004  RDAT :0xffffffff
# ---- [Error      ]Read bram ADD :0x080005  EDAT :0x00000005  RDAT :0xffffffff
# ---- [Error      ]Read bram ADD :0x080006  EDAT :0x00000006  RDAT :0xffffffff
# ---- [Error      ]Read bram ADD :0x080007  EDAT :0x00000007  RDAT :0xffffffff
# ---- [Error      ]Read bram ADD :0x080008  EDAT :0x00000008  RDAT :0xffffffff
# ---- [Error      ]Read bram ADD :0x080009  EDAT :0x00000009  RDAT :0xffffffff
# ---- [Error      ]Read bram ADD :0x08000a  EDAT :0x0000000a  RDAT :0xffffffff
# ---- [Error      ]Read bram ADD :0x08000b  EDAT :0x0000000b  RDAT :0xffffffff
# ---- [Error      ]Read bram ADD :0x08000c  EDAT :0x0000000c  RDAT :0xffffffff
# ---- [Error      ]Read bram ADD :0x08000d  EDAT :0x0000000d  RDAT :0xffffffff
# ---- [Error      ]Read bram ADD :0x08000e  EDAT :0x0000000e  RDAT :0xffffffff
# ---- [Error      ]Read bram ADD :0x08000f  EDAT :0x0000000f  RDAT :0xffffffff
# ---- [Error      ]Read bram ADD :0x080010  EDAT :0x00000010  RDAT :0xffffffff
# ---- [Error      ]Read bram ADD :0x080011  EDAT :0x00000011  RDAT :0xffffffff
# ---- [Error      ]Read bram ADD :0x080012  EDAT :0x00000012  RDAT :0xffffffff
# ---- [Error      ]Read bram ADD :0x080013  EDAT :0x00000013  RDAT :0xffffffff
# ---- [Error      ]Read bram ADD :0x080014  EDAT :0x00000014  RDAT :0xffffffff
# ---- [Error      ]Read bram ADD :0x080015  EDAT :0x00000015  RDAT :0xffffffff
# ---- [Error      ]Read bram ADD :0x080016  EDAT :0x00000016  RDAT :0xffffffff
# ---- [Error      ]Read bram ADD :0x080017  EDAT :0x00000017  RDAT :0xffffffff
# ---- [Error      ]Read bram ADD :0x080018  EDAT :0x00000018  RDAT :0xffffffff
# ---- [Error      ]Read bram ADD :0x080019  EDAT :0x00000019  RDAT :0xffffffff
# ---- [Error      ]Read bram ADD :0x08001a  EDAT :0x0000001a  RDAT :0xffffffff
# ---- [Error      ]Read bram ADD :0x08001b  EDAT :0x0000001b  RDAT :0xffffffff
# ---- [Error      ]Read bram ADD :0x08001c  EDAT :0x0000001c  RDAT :0xffffffff
# ---- [Error      ]Read bram ADD :0x08001d  EDAT :0x0000001d  RDAT :0xffffffff
# ---- [Error      ]Read bram ADD :0x08001e  EDAT :0x0000001e  RDAT :0xffffffff
# ---- [Error      ]Read bram ADD :0x08001f  EDAT :0x0000001f  RDAT :0xffffffff
# ---- [Error      ]Read bram ADD :0x080020  EDAT :0x00000020  RDAT :0xffffffff
# ---- [Error      ]Read bram ADD :0x080021  EDAT :0x00000021  RDAT :0xffffffff
# ---- [Error      ]Read bram ADD :0x080022  EDAT :0x00000022  RDAT :0xffffffff
# ---- [Error      ]Read bram ADD :0x080023  EDAT :0x00000023  RDAT :0xffffffff
# ---- [Error      ]Read bram ADD :0x080024  EDAT :0x00000024  RDAT :0xffffffff
# ---- [Error      ]Read bram ADD :0x080025  EDAT :0x00000025  RDAT :0xffffffff
# ---- [Error      ]Read bram ADD :0x080026  EDAT :0x00000026  RDAT :0xffffffff
# ---- [Error      ]Read bram ADD :0x080027  EDAT :0x00000027  RDAT :0xffffffff
# ---- [Error      ]Read bram ADD :0x080028  EDAT :0x00000028  RDAT :0xffffffff
# ---- [Error      ]Read bram ADD :0x080029  EDAT :0x00000029  RDAT :0xffffffff
# ---- [Error      ]Read bram ADD :0x08002a  EDAT :0x0000002a  RDAT :0xffffffff
# ---- [Error      ]Read bram ADD :0x08002b  EDAT :0x0000002b  RDAT :0xffffffff
# ---- [Error      ]Read bram ADD :0x08002c  EDAT :0x0000002c  RDAT :0xffffffff
# ---- [Error      ]Read bram ADD :0x08002d  EDAT :0x0000002d  RDAT :0xffffffff
# ---- [Error      ]Read bram ADD :0x08002e  EDAT :0x0000002e  RDAT :0xffffffff
# ---- [Error      ]Read bram ADD :0x08002f  EDAT :0x0000002f  RDAT :0xffffffff
# ---- [Error      ]Read bram ADD :0x080030  EDAT :0x00000030  RDAT :0xffffffff
# ---- [Error      ]Read bram ADD :0x080031  EDAT :0x00000031  RDAT :0xffffffff
# ---- [Error      ]Read bram ADD :0x080032  EDAT :0x00000032  RDAT :0xffffffff
# ---- [Error      ]Read bram ADD :0x080033  EDAT :0x00000033  RDAT :0xffffffff
# ---- [Error      ]Read bram ADD :0x080034  EDAT :0x00000034  RDAT :0xffffffff
# ---- [Error      ]Read bram ADD :0x080035  EDAT :0x00000035  RDAT :0xffffffff
# ---- [Error      ]Read bram ADD :0x080036  EDAT :0x00000036  RDAT :0xffffffff
# ---- [Error      ]Read bram ADD :0x080037  EDAT :0x00000037  RDAT :0xffffffff
# ---- [Error      ]Read bram ADD :0x080038  EDAT :0x00000038  RDAT :0xffffffff
# ---- [Error      ]Read bram ADD :0x080039  EDAT :0x00000039  RDAT :0xffffffff
# ---- [Error      ]Read bram ADD :0x08003a  EDAT :0x0000003a  RDAT :0xffffffff
# ---- [Error      ]Read bram ADD :0x08003b  EDAT :0x0000003b  RDAT :0xffffffff
# ---- [Error      ]Read bram ADD :0x08003c  EDAT :0x0000003c  RDAT :0xffffffff
# ---- [Error      ]Read bram ADD :0x08003d  EDAT :0x0000003d  RDAT :0xffffffff
# ---- [Error      ]Read bram ADD :0x08003e  EDAT :0x0000003e  RDAT :0xffffffff
# ---- [Error      ]Read bram ADD :0x08003f  EDAT :0x0000003f  RDAT :0xffffffff
# ---- [Error      ]LBUS BRAM   ADD :0x00080000    SIZE :0x100 faild read end
# ---- LBUS BRAM read   ADD :0x00100000    SIZE :0x100
# ---- [Error      ]Read bram ADD :0x100000  EDAT :0x00000000  RDAT :0xffffffff
# ---- [Error      ]Read bram ADD :0x100001  EDAT :0x00000001  RDAT :0xffffffff
# ---- [Error      ]Read bram ADD :0x100002  EDAT :0x00000002  RDAT :0xffffffff
# ---- [Error      ]Read bram ADD :0x100003  EDAT :0x00000003  RDAT :0xffffffff
# ---- [Error      ]Read bram ADD :0x100004  EDAT :0x00000004  RDAT :0xffffffff
# ---- [Error      ]Read bram ADD :0x100005  EDAT :0x00000005  RDAT :0xffffffff
# ---- [Error      ]Read bram ADD :0x100006  EDAT :0x00000006  RDAT :0xffffffff
# ---- [Error      ]Read bram ADD :0x100007  EDAT :0x00000007  RDAT :0xffffffff
# ---- [Error      ]Read bram ADD :0x100008  EDAT :0x00000008  RDAT :0xffffffff
# ---- [Error      ]Read bram ADD :0x100009  EDAT :0x00000009  RDAT :0xffffffff
# ---- [Error      ]Read bram ADD :0x10000a  EDAT :0x0000000a  RDAT :0xffffffff
# ---- [Error      ]Read bram ADD :0x10000b  EDAT :0x0000000b  RDAT :0xffffffff
# ---- [Error      ]Read bram ADD :0x10000c  EDAT :0x0000000c  RDAT :0xffffffff
# ---- [Error      ]Read bram ADD :0x10000d  EDAT :0x0000000d  RDAT :0xffffffff
# ---- [Error      ]Read bram ADD :0x10000e  EDAT :0x0000000e  RDAT :0xffffffff
# ---- [Error      ]Read bram ADD :0x10000f  EDAT :0x0000000f  RDAT :0xffffffff
# ---- [Error      ]Read bram ADD :0x100010  EDAT :0x00000010  RDAT :0xffffffff
# ---- [Error      ]Read bram ADD :0x100011  EDAT :0x00000011  RDAT :0xffffffff
# ---- [Error      ]Read bram ADD :0x100012  EDAT :0x00000012  RDAT :0xffffffff
# ---- [Error      ]Read bram ADD :0x100013  EDAT :0x00000013  RDAT :0xffffffff
# ---- [Error      ]Read bram ADD :0x100014  EDAT :0x00000014  RDAT :0xffffffff
# ---- [Error      ]Read bram ADD :0x100015  EDAT :0x00000015  RDAT :0xffffffff
# ---- [Error      ]Read bram ADD :0x100016  EDAT :0x00000016  RDAT :0xffffffff
# ---- [Error      ]Read bram ADD :0x100017  EDAT :0x00000017  RDAT :0xffffffff
# ---- [Error      ]Read bram ADD :0x100018  EDAT :0x00000018  RDAT :0xffffffff
# ---- [Error      ]Read bram ADD :0x100019  EDAT :0x00000019  RDAT :0xffffffff
# ---- [Error      ]Read bram ADD :0x10001a  EDAT :0x0000001a  RDAT :0xffffffff
# ---- [Error      ]Read bram ADD :0x10001b  EDAT :0x0000001b  RDAT :0xffffffff
# ---- [Error      ]Read bram ADD :0x10001c  EDAT :0x0000001c  RDAT :0xffffffff
# ---- [Error      ]Read bram ADD :0x10001d  EDAT :0x0000001d  RDAT :0xffffffff
# ---- [Error      ]Read bram ADD :0x10001e  EDAT :0x0000001e  RDAT :0xffffffff
# ---- [Error      ]Read bram ADD :0x10001f  EDAT :0x0000001f  RDAT :0xffffffff
# ---- [Error      ]Read bram ADD :0x100020  EDAT :0x00000020  RDAT :0xffffffff
# ---- [Error      ]Read bram ADD :0x100021  EDAT :0x00000021  RDAT :0xffffffff
# ---- [Error      ]Read bram ADD :0x100022  EDAT :0x00000022  RDAT :0xffffffff
# ---- [Error      ]Read bram ADD :0x100023  EDAT :0x00000023  RDAT :0xffffffff
# ---- [Error      ]Read bram ADD :0x100024  EDAT :0x00000024  RDAT :0xffffffff
# ---- [Error      ]Read bram ADD :0x100025  EDAT :0x00000025  RDAT :0xffffffff
# ---- [Error      ]Read bram ADD :0x100026  EDAT :0x00000026  RDAT :0xffffffff
# ---- [Error      ]Read bram ADD :0x100027  EDAT :0x00000027  RDAT :0xffffffff
# ---- [Error      ]Read bram ADD :0x100028  EDAT :0x00000028  RDAT :0xffffffff
# ---- [Error      ]Read bram ADD :0x100029  EDAT :0x00000029  RDAT :0xffffffff
# ---- [Error      ]Read bram ADD :0x10002a  EDAT :0x0000002a  RDAT :0xffffffff
# ---- [Error      ]Read bram ADD :0x10002b  EDAT :0x0000002b  RDAT :0xffffffff
# ---- [Error      ]Read bram ADD :0x10002c  EDAT :0x0000002c  RDAT :0xffffffff
# ---- [Error      ]Read bram ADD :0x10002d  EDAT :0x0000002d  RDAT :0xffffffff
# ---- [Error      ]Read bram ADD :0x10002e  EDAT :0x0000002e  RDAT :0xffffffff
# ---- [Error      ]Read bram ADD :0x10002f  EDAT :0x0000002f  RDAT :0xffffffff
# ---- [Error      ]Read bram ADD :0x100030  EDAT :0x00000030  RDAT :0xffffffff
# ---- [Error      ]Read bram ADD :0x100031  EDAT :0x00000031  RDAT :0xffffffff
# ---- [Error      ]Read bram ADD :0x100032  EDAT :0x00000032  RDAT :0xffffffff
# ---- [Error      ]Read bram ADD :0x100033  EDAT :0x00000033  RDAT :0xffffffff
# ---- [Error      ]Read bram ADD :0x100034  EDAT :0x00000034  RDAT :0xffffffff
# ---- [Error      ]Read bram ADD :0x100035  EDAT :0x00000035  RDAT :0xffffffff
# ---- [Error      ]Read bram ADD :0x100036  EDAT :0x00000036  RDAT :0xffffffff
# ---- [Error      ]Read bram ADD :0x100037  EDAT :0x00000037  RDAT :0xffffffff
# ---- [Error      ]Read bram ADD :0x100038  EDAT :0x00000038  RDAT :0xffffffff
# ---- [Error      ]Read bram ADD :0x100039  EDAT :0x00000039  RDAT :0xffffffff
# ---- [Error      ]Read bram ADD :0x10003a  EDAT :0x0000003a  RDAT :0xffffffff
# ---- [Error      ]Read bram ADD :0x10003b  EDAT :0x0000003b  RDAT :0xffffffff
# ---- [Error      ]Read bram ADD :0x10003c  EDAT :0x0000003c  RDAT :0xffffffff
# ---- [Error      ]Read bram ADD :0x10003d  EDAT :0x0000003d  RDAT :0xffffffff
# ---- [Error      ]Read bram ADD :0x10003e  EDAT :0x0000003e  RDAT :0xffffffff
# ---- [Error      ]Read bram ADD :0x10003f  EDAT :0x0000003f  RDAT :0xffffffff
# ---- [Error      ]LBUS BRAM   ADD :0x00100000    SIZE :0x100 faild read end
# ---- LBUS BRAM read   ADD :0x00200000    SIZE :0x100
# ---- [Error      ]Read bram ADD :0x200000  EDAT :0x00000000  RDAT :0xffffffff
# ---- [Error      ]Read bram ADD :0x200001  EDAT :0x00000001  RDAT :0xffffffff
# ---- [Error      ]Read bram ADD :0x200002  EDAT :0x00000002  RDAT :0xffffffff
# ---- [Error      ]Read bram ADD :0x200003  EDAT :0x00000003  RDAT :0xffffffff
# ---- [Error      ]Read bram ADD :0x200004  EDAT :0x00000004  RDAT :0xffffffff
# ---- [Error      ]Read bram ADD :0x200005  EDAT :0x00000005  RDAT :0xffffffff
# ---- [Error      ]Read bram ADD :0x200006  EDAT :0x00000006  RDAT :0xffffffff
# ---- [Error      ]Read bram ADD :0x200007  EDAT :0x00000007  RDAT :0xffffffff
# ---- [Error      ]Read bram ADD :0x200008  EDAT :0x00000008  RDAT :0xffffffff
# ---- [Error      ]Read bram ADD :0x200009  EDAT :0x00000009  RDAT :0xffffffff
# ---- [Error      ]Read bram ADD :0x20000a  EDAT :0x0000000a  RDAT :0xffffffff
# ---- [Error      ]Read bram ADD :0x20000b  EDAT :0x0000000b  RDAT :0xffffffff
# ---- [Error      ]Read bram ADD :0x20000c  EDAT :0x0000000c  RDAT :0xffffffff
# ---- [Error      ]Read bram ADD :0x20000d  EDAT :0x0000000d  RDAT :0xffffffff
# ---- [Error      ]Read bram ADD :0x20000e  EDAT :0x0000000e  RDAT :0xffffffff
# ---- [Error      ]Read bram ADD :0x20000f  EDAT :0x0000000f  RDAT :0xffffffff
# ---- [Error      ]Read bram ADD :0x200010  EDAT :0x00000010  RDAT :0xffffffff
# ---- [Error      ]Read bram ADD :0x200011  EDAT :0x00000011  RDAT :0xffffffff
# ---- [Error      ]Read bram ADD :0x200012  EDAT :0x00000012  RDAT :0xffffffff
# ---- [Error      ]Read bram ADD :0x200013  EDAT :0x00000013  RDAT :0xffffffff
# ---- [Error      ]Read bram ADD :0x200014  EDAT :0x00000014  RDAT :0xffffffff
# ---- [Error      ]Read bram ADD :0x200015  EDAT :0x00000015  RDAT :0xffffffff
# ---- [Error      ]Read bram ADD :0x200016  EDAT :0x00000016  RDAT :0xffffffff
# ---- [Error      ]Read bram ADD :0x200017  EDAT :0x00000017  RDAT :0xffffffff
# ---- [Error      ]Read bram ADD :0x200018  EDAT :0x00000018  RDAT :0xffffffff
# ---- [Error      ]Read bram ADD :0x200019  EDAT :0x00000019  RDAT :0xffffffff
# ---- [Error      ]Read bram ADD :0x20001a  EDAT :0x0000001a  RDAT :0xffffffff
# ---- [Error      ]Read bram ADD :0x20001b  EDAT :0x0000001b  RDAT :0xffffffff
# ---- [Error      ]Read bram ADD :0x20001c  EDAT :0x0000001c  RDAT :0xffffffff
# ---- [Error      ]Read bram ADD :0x20001d  EDAT :0x0000001d  RDAT :0xffffffff
# ---- [Error      ]Read bram ADD :0x20001e  EDAT :0x0000001e  RDAT :0xffffffff
# ---- [Error      ]Read bram ADD :0x20001f  EDAT :0x0000001f  RDAT :0xffffffff
# ---- [Error      ]Read bram ADD :0x200020  EDAT :0x00000020  RDAT :0xffffffff
# ---- [Error      ]Read bram ADD :0x200021  EDAT :0x00000021  RDAT :0xffffffff
# ---- [Error      ]Read bram ADD :0x200022  EDAT :0x00000022  RDAT :0xffffffff
# ---- [Error      ]Read bram ADD :0x200023  EDAT :0x00000023  RDAT :0xffffffff
# ---- [Error      ]Read bram ADD :0x200024  EDAT :0x00000024  RDAT :0xffffffff
# ---- [Error      ]Read bram ADD :0x200025  EDAT :0x00000025  RDAT :0xffffffff
# ---- [Error      ]Read bram ADD :0x200026  EDAT :0x00000026  RDAT :0xffffffff
# ---- [Error      ]Read bram ADD :0x200027  EDAT :0x00000027  RDAT :0xffffffff
# ---- [Error      ]Read bram ADD :0x200028  EDAT :0x00000028  RDAT :0xffffffff
# ---- [Error      ]Read bram ADD :0x200029  EDAT :0x00000029  RDAT :0xffffffff
# ---- [Error      ]Read bram ADD :0x20002a  EDAT :0x0000002a  RDAT :0xffffffff
# ---- [Error      ]Read bram ADD :0x20002b  EDAT :0x0000002b  RDAT :0xffffffff
# ---- [Error      ]Read bram ADD :0x20002c  EDAT :0x0000002c  RDAT :0xffffffff
# ---- [Error      ]Read bram ADD :0x20002d  EDAT :0x0000002d  RDAT :0xffffffff
# ---- [Error      ]Read bram ADD :0x20002e  EDAT :0x0000002e  RDAT :0xffffffff
# ---- [Error      ]Read bram ADD :0x20002f  EDAT :0x0000002f  RDAT :0xffffffff
# ---- [Error      ]Read bram ADD :0x200030  EDAT :0x00000030  RDAT :0xffffffff
# ---- [Error      ]Read bram ADD :0x200031  EDAT :0x00000031  RDAT :0xffffffff
# ---- [Error      ]Read bram ADD :0x200032  EDAT :0x00000032  RDAT :0xffffffff
# ---- [Error      ]Read bram ADD :0x200033  EDAT :0x00000033  RDAT :0xffffffff
# ---- [Error      ]Read bram ADD :0x200034  EDAT :0x00000034  RDAT :0xffffffff
# ---- [Error      ]Read bram ADD :0x200035  EDAT :0x00000035  RDAT :0xffffffff
# ---- [Error      ]Read bram ADD :0x200036  EDAT :0x00000036  RDAT :0xffffffff
# ---- [Error      ]Read bram ADD :0x200037  EDAT :0x00000037  RDAT :0xffffffff
# ---- [Error      ]Read bram ADD :0x200038  EDAT :0x00000038  RDAT :0xffffffff
# ---- [Error      ]Read bram ADD :0x200039  EDAT :0x00000039  RDAT :0xffffffff
# ---- [Error      ]Read bram ADD :0x20003a  EDAT :0x0000003a  RDAT :0xffffffff
# ---- [Error      ]Read bram ADD :0x20003b  EDAT :0x0000003b  RDAT :0xffffffff
# ---- [Error      ]Read bram ADD :0x20003c  EDAT :0x0000003c  RDAT :0xffffffff
# ---- [Error      ]Read bram ADD :0x20003d  EDAT :0x0000003d  RDAT :0xffffffff
# ---- [Error      ]Read bram ADD :0x20003e  EDAT :0x0000003e  RDAT :0xffffffff
# ---- [Error      ]Read bram ADD :0x20003f  EDAT :0x0000003f  RDAT :0xffffffff
# ---- [Error      ]LBUS BRAM   ADD :0x00200000    SIZE :0x100 faild read end
# ---- LBUS BRAM read   ADD :0x00400000    SIZE :0x100
# ---- [Error      ]Read bram ADD :0x400000  EDAT :0x00000000  RDAT :0xffffffff
# ---- [Error      ]Read bram ADD :0x400001  EDAT :0x00000001  RDAT :0xffffffff
# ---- [Error      ]Read bram ADD :0x400002  EDAT :0x00000002  RDAT :0xffffffff
# ---- [Error      ]Read bram ADD :0x400003  EDAT :0x00000003  RDAT :0xffffffff
# ---- [Error      ]Read bram ADD :0x400004  EDAT :0x00000004  RDAT :0xffffffff
# ---- [Error      ]Read bram ADD :0x400005  EDAT :0x00000005  RDAT :0xffffffff
# ---- [Error      ]Read bram ADD :0x400006  EDAT :0x00000006  RDAT :0xffffffff
# ---- [Error      ]Read bram ADD :0x400007  EDAT :0x00000007  RDAT :0xffffffff
# ---- [Error      ]Read bram ADD :0x400008  EDAT :0x00000008  RDAT :0xffffffff
# ---- [Error      ]Read bram ADD :0x400009  EDAT :0x00000009  RDAT :0xffffffff
# ---- [Error      ]Read bram ADD :0x40000a  EDAT :0x0000000a  RDAT :0xffffffff
# ---- [Error      ]Read bram ADD :0x40000b  EDAT :0x0000000b  RDAT :0xffffffff
# ---- [Error      ]Read bram ADD :0x40000c  EDAT :0x0000000c  RDAT :0xffffffff
# ---- [Error      ]Read bram ADD :0x40000d  EDAT :0x0000000d  RDAT :0xffffffff
# ---- [Error      ]Read bram ADD :0x40000e  EDAT :0x0000000e  RDAT :0xffffffff
# ---- [Error      ]Read bram ADD :0x40000f  EDAT :0x0000000f  RDAT :0xffffffff
# ---- [Error      ]Read bram ADD :0x400010  EDAT :0x00000010  RDAT :0xffffffff
# ---- [Error      ]Read bram ADD :0x400011  EDAT :0x00000011  RDAT :0xffffffff
# ---- [Error      ]Read bram ADD :0x400012  EDAT :0x00000012  RDAT :0xffffffff
# ---- [Error      ]Read bram ADD :0x400013  EDAT :0x00000013  RDAT :0xffffffff
# ---- [Error      ]Read bram ADD :0x400014  EDAT :0x00000014  RDAT :0xffffffff
# ---- [Error      ]Read bram ADD :0x400015  EDAT :0x00000015  RDAT :0xffffffff
# ---- [Error      ]Read bram ADD :0x400016  EDAT :0x00000016  RDAT :0xffffffff
# ---- [Error      ]Read bram ADD :0x400017  EDAT :0x00000017  RDAT :0xffffffff
# ---- [Error      ]Read bram ADD :0x400018  EDAT :0x00000018  RDAT :0xffffffff
# ---- [Error      ]Read bram ADD :0x400019  EDAT :0x00000019  RDAT :0xffffffff
# ---- [Error      ]Read bram ADD :0x40001a  EDAT :0x0000001a  RDAT :0xffffffff
# ---- [Error      ]Read bram ADD :0x40001b  EDAT :0x0000001b  RDAT :0xffffffff
# ---- [Error      ]Read bram ADD :0x40001c  EDAT :0x0000001c  RDAT :0xffffffff
# ---- [Error      ]Read bram ADD :0x40001d  EDAT :0x0000001d  RDAT :0xffffffff
# ---- [Error      ]Read bram ADD :0x40001e  EDAT :0x0000001e  RDAT :0xffffffff
# ---- [Error      ]Read bram ADD :0x40001f  EDAT :0x0000001f  RDAT :0xffffffff
# ---- [Error      ]Read bram ADD :0x400020  EDAT :0x00000020  RDAT :0xffffffff
# ---- [Error      ]Read bram ADD :0x400021  EDAT :0x00000021  RDAT :0xffffffff
# ---- [Error      ]Read bram ADD :0x400022  EDAT :0x00000022  RDAT :0xffffffff
# ---- [Error      ]Read bram ADD :0x400023  EDAT :0x00000023  RDAT :0xffffffff
# ---- [Error      ]Read bram ADD :0x400024  EDAT :0x00000024  RDAT :0xffffffff
# ---- [Error      ]Read bram ADD :0x400025  EDAT :0x00000025  RDAT :0xffffffff
# ---- [Error      ]Read bram ADD :0x400026  EDAT :0x00000026  RDAT :0xffffffff
# ---- [Error      ]Read bram ADD :0x400027  EDAT :0x00000027  RDAT :0xffffffff
# ---- [Error      ]Read bram ADD :0x400028  EDAT :0x00000028  RDAT :0xffffffff
# ---- [Error      ]Read bram ADD :0x400029  EDAT :0x00000029  RDAT :0xffffffff
# ---- [Error      ]Read bram ADD :0x40002a  EDAT :0x0000002a  RDAT :0xffffffff
# ---- [Error      ]Read bram ADD :0x40002b  EDAT :0x0000002b  RDAT :0xffffffff
# ---- [Error      ]Read bram ADD :0x40002c  EDAT :0x0000002c  RDAT :0xffffffff
# ---- [Error      ]Read bram ADD :0x40002d  EDAT :0x0000002d  RDAT :0xffffffff
# ---- [Error      ]Read bram ADD :0x40002e  EDAT :0x0000002e  RDAT :0xffffffff
# ---- [Error      ]Read bram ADD :0x40002f  EDAT :0x0000002f  RDAT :0xffffffff
# ---- [Error      ]Read bram ADD :0x400030  EDAT :0x00000030  RDAT :0xffffffff
# ---- [Error      ]Read bram ADD :0x400031  EDAT :0x00000031  RDAT :0xffffffff
# ---- [Error      ]Read bram ADD :0x400032  EDAT :0x00000032  RDAT :0xffffffff
# ---- [Error      ]Read bram ADD :0x400033  EDAT :0x00000033  RDAT :0xffffffff
# ---- [Error      ]Read bram ADD :0x400034  EDAT :0x00000034  RDAT :0xffffffff
# ---- [Error      ]Read bram ADD :0x400035  EDAT :0x00000035  RDAT :0xffffffff
# ---- [Error      ]Read bram ADD :0x400036  EDAT :0x00000036  RDAT :0xffffffff
# ---- [Error      ]Read bram ADD :0x400037  EDAT :0x00000037  RDAT :0xffffffff
# ---- [Error      ]Read bram ADD :0x400038  EDAT :0x00000038  RDAT :0xffffffff
# ---- [Error      ]Read bram ADD :0x400039  EDAT :0x00000039  RDAT :0xffffffff
# ---- [Error      ]Read bram ADD :0x40003a  EDAT :0x0000003a  RDAT :0xffffffff
# ---- [Error      ]Read bram ADD :0x40003b  EDAT :0x0000003b  RDAT :0xffffffff
# ---- [Error      ]Read bram ADD :0x40003c  EDAT :0x0000003c  RDAT :0xffffffff
# ---- [Error      ]Read bram ADD :0x40003d  EDAT :0x0000003d  RDAT :0xffffffff
# ---- [Error      ]Read bram ADD :0x40003e  EDAT :0x0000003e  RDAT :0xffffffff
# ---- [Error      ]Read bram ADD :0x40003f  EDAT :0x0000003f  RDAT :0xffffffff
# ---- [Error      ]LBUS BRAM   ADD :0x00400000    SIZE :0x100 faild read end
# ---- LBUS BRAM read   ADD :0x00800000    SIZE :0x100
# ---- [Error      ]Read bram ADD :0x800000  EDAT :0x00000000  RDAT :0xffffffff
# ---- [Error      ]Read bram ADD :0x800001  EDAT :0x00000001  RDAT :0xffffffff
# ---- [Error      ]Read bram ADD :0x800002  EDAT :0x00000002  RDAT :0xffffffff
# ---- [Error      ]Read bram ADD :0x800003  EDAT :0x00000003  RDAT :0xffffffff
# ---- [Error      ]Read bram ADD :0x800004  EDAT :0x00000004  RDAT :0xffffffff
# ---- [Error      ]Read bram ADD :0x800005  EDAT :0x00000005  RDAT :0xffffffff
# ---- [Error      ]Read bram ADD :0x800006  EDAT :0x00000006  RDAT :0xffffffff
# ---- [Error      ]Read bram ADD :0x800007  EDAT :0x00000007  RDAT :0xffffffff
# ---- [Error      ]Read bram ADD :0x800008  EDAT :0x00000008  RDAT :0xffffffff
# ---- [Error      ]Read bram ADD :0x800009  EDAT :0x00000009  RDAT :0xffffffff
# ---- [Error      ]Read bram ADD :0x80000a  EDAT :0x0000000a  RDAT :0xffffffff
# ---- [Error      ]Read bram ADD :0x80000b  EDAT :0x0000000b  RDAT :0xffffffff
# ---- [Error      ]Read bram ADD :0x80000c  EDAT :0x0000000c  RDAT :0xffffffff
# ---- [Error      ]Read bram ADD :0x80000d  EDAT :0x0000000d  RDAT :0xffffffff
# ---- [Error      ]Read bram ADD :0x80000e  EDAT :0x0000000e  RDAT :0xffffffff
# ---- [Error      ]Read bram ADD :0x80000f  EDAT :0x0000000f  RDAT :0xffffffff
# ---- [Error      ]Read bram ADD :0x800010  EDAT :0x00000010  RDAT :0xffffffff
# ---- [Error      ]Read bram ADD :0x800011  EDAT :0x00000011  RDAT :0xffffffff
# ---- [Error      ]Read bram ADD :0x800012  EDAT :0x00000012  RDAT :0xffffffff
# ---- [Error      ]Read bram ADD :0x800013  EDAT :0x00000013  RDAT :0xffffffff
# ---- [Error      ]Read bram ADD :0x800014  EDAT :0x00000014  RDAT :0xffffffff
# ---- [Error      ]Read bram ADD :0x800015  EDAT :0x00000015  RDAT :0xffffffff
# ---- [Error      ]Read bram ADD :0x800016  EDAT :0x00000016  RDAT :0xffffffff
# ---- [Error      ]Read bram ADD :0x800017  EDAT :0x00000017  RDAT :0xffffffff
# ---- [Error      ]Read bram ADD :0x800018  EDAT :0x00000018  RDAT :0xffffffff
# ---- [Error      ]Read bram ADD :0x800019  EDAT :0x00000019  RDAT :0xffffffff
# ---- [Error      ]Read bram ADD :0x80001a  EDAT :0x0000001a  RDAT :0xffffffff
# ---- [Error      ]Read bram ADD :0x80001b  EDAT :0x0000001b  RDAT :0xffffffff
# ---- [Error      ]Read bram ADD :0x80001c  EDAT :0x0000001c  RDAT :0xffffffff
# ---- [Error      ]Read bram ADD :0x80001d  EDAT :0x0000001d  RDAT :0xffffffff
# ---- [Error      ]Read bram ADD :0x80001e  EDAT :0x0000001e  RDAT :0xffffffff
# ---- [Error      ]Read bram ADD :0x80001f  EDAT :0x0000001f  RDAT :0xffffffff
# ---- [Error      ]Read bram ADD :0x800020  EDAT :0x00000020  RDAT :0xffffffff
# ---- [Error      ]Read bram ADD :0x800021  EDAT :0x00000021  RDAT :0xffffffff
# ---- [Error      ]Read bram ADD :0x800022  EDAT :0x00000022  RDAT :0xffffffff
# ---- [Error      ]Read bram ADD :0x800023  EDAT :0x00000023  RDAT :0xffffffff
# ---- [Error      ]Read bram ADD :0x800024  EDAT :0x00000024  RDAT :0xffffffff
# ---- [Error      ]Read bram ADD :0x800025  EDAT :0x00000025  RDAT :0xffffffff
# ---- [Error      ]Read bram ADD :0x800026  EDAT :0x00000026  RDAT :0xffffffff
# ---- [Error      ]Read bram ADD :0x800027  EDAT :0x00000027  RDAT :0xffffffff
# ---- [Error      ]Read bram ADD :0x800028  EDAT :0x00000028  RDAT :0xffffffff
# ---- [Error      ]Read bram ADD :0x800029  EDAT :0x00000029  RDAT :0xffffffff
# ---- [Error      ]Read bram ADD :0x80002a  EDAT :0x0000002a  RDAT :0xffffffff
# ---- [Error      ]Read bram ADD :0x80002b  EDAT :0x0000002b  RDAT :0xffffffff
# ---- [Error      ]Read bram ADD :0x80002c  EDAT :0x0000002c  RDAT :0xffffffff
# ---- [Error      ]Read bram ADD :0x80002d  EDAT :0x0000002d  RDAT :0xffffffff
# ---- [Error      ]Read bram ADD :0x80002e  EDAT :0x0000002e  RDAT :0xffffffff
# ---- [Error      ]Read bram ADD :0x80002f  EDAT :0x0000002f  RDAT :0xffffffff
# ---- [Error      ]Read bram ADD :0x800030  EDAT :0x00000030  RDAT :0xffffffff
# ---- [Error      ]Read bram ADD :0x800031  EDAT :0x00000031  RDAT :0xffffffff
# ---- [Error      ]Read bram ADD :0x800032  EDAT :0x00000032  RDAT :0xffffffff
# ---- [Error      ]Read bram ADD :0x800033  EDAT :0x00000033  RDAT :0xffffffff
# ---- [Error      ]Read bram ADD :0x800034  EDAT :0x00000034  RDAT :0xffffffff
# ---- [Error      ]Read bram ADD :0x800035  EDAT :0x00000035  RDAT :0xffffffff
# ---- [Error      ]Read bram ADD :0x800036  EDAT :0x00000036  RDAT :0xffffffff
# ---- [Error      ]Read bram ADD :0x800037  EDAT :0x00000037  RDAT :0xffffffff
# ---- [Error      ]Read bram ADD :0x800038  EDAT :0x00000038  RDAT :0xffffffff
# ---- [Error      ]Read bram ADD :0x800039  EDAT :0x00000039  RDAT :0xffffffff
# ---- [Error      ]Read bram ADD :0x80003a  EDAT :0x0000003a  RDAT :0xffffffff
# ---- [Error      ]Read bram ADD :0x80003b  EDAT :0x0000003b  RDAT :0xffffffff
# ---- [Error      ]Read bram ADD :0x80003c  EDAT :0x0000003c  RDAT :0xffffffff
# ---- [Error      ]Read bram ADD :0x80003d  EDAT :0x0000003d  RDAT :0xffffffff
# ---- [Error      ]Read bram ADD :0x80003e  EDAT :0x0000003e  RDAT :0xffffffff
# ---- [Error      ]Read bram ADD :0x80003f  EDAT :0x0000003f  RDAT :0xffffffff
# ---- [Error      ]LBUS BRAM   ADD :0x00800000    SIZE :0x100 faild read end
# ---- LBUS BRAM write   ADD :0x00010040    SIZE :0x100
# ---- LBUS BRAM write end
# ---- LBUS BRAM write   ADD :0x00020040    SIZE :0x100
# ---- LBUS BRAM write end
# ---- LBUS BRAM write   ADD :0x00040040    SIZE :0x100
do do/tb_06.do
# Model Technology ModelSim SE-64 vlog 2020.4 Compiler 2020.10 Oct 13 2020
# Start time: 09:29:44 on Feb 18,2025
# vlog -reportprogress 300 "+define+tb_06=1" -work work sim_model\define\define.v 
# End time: 09:29:45 on Feb 18,2025, Elapsed time: 0:00:01
# Errors: 0, Warnings: 0
# Model Technology ModelSim SE-64 vlog 2020.4 Compiler 2020.10 Oct 13 2020
# Start time: 09:29:45 on Feb 18,2025
# vlog -reportprogress 300 "+define+tb_06=1" -work work "+incdir+{sim_modeldefine}" sim_model\tb_top.v 
# -- Compiling module tb_top
# 
# Top level modules:
# 	tb_top
# End time: 09:29:45 on Feb 18,2025, Elapsed time: 0:00:00
# Errors: 0, Warnings: 0
